Sample in Buffer,Sample in Window,TRIGGER,u_FFT_Top/ram_addr_write[12:0],u_FFT_Top/<const0>_1,u_FFT_Top/<const0>_2,u_FFT_Top/ram_addr_read[12:0],u_FFT_Top/<const0>_3,u_FFT_Top/<const0>,u_FFT_Top/ram_data_in[31:0],u_FFT_Top/ram_data_out[31:0],u_FFT_Top/s_axis_data_tdata[31:0],u_FFT_Top/fft_256_data_out[31:0],u_FFT_Top/fft_16_data_out_1[31:0],u_FFT_Top/fft_16_data_out[31:0],u_FFT_Top/fft_16_valid_out
0,0,0,082b,0,0,0000,0,0,0ece1163,116ef3b3,fe54011a,0ece1163,00000000,00000000,0
1,1,0,082b,0,0,0000,0,0,0ece1163,116ef3b3,fe54011a,0ece1163,00000000,00000000,0
2,2,0,082b,0,0,0000,0,0,0ece1163,116ef3b3,fe54011a,0ece1163,00000000,00000000,0
3,3,0,082b,0,0,0000,0,0,0ece1163,116ef3b3,fe54011a,0ece1163,00000000,00000000,0
4,4,0,082b,0,0,0000,0,0,0ece1163,116ef3b3,fe54011a,0ece1163,00000000,00000000,0
5,5,0,082b,0,0,0000,0,0,0ece1163,116ef3b3,fe54011a,0ece1163,00000000,00000000,0
6,6,0,082b,0,0,0000,0,0,0ece1163,116ef3b3,fe54011a,f4a6efff,00000000,00000000,0
7,7,0,082b,0,0,0000,0,0,0ece1163,116ef3b3,fe54011a,00ce009f,00000000,00000000,0
8,8,0,082b,0,0,0000,0,0,0ece1163,116ef3b3,fe54011a,fc5dff13,00000000,00000000,0
9,9,0,082b,0,0,0000,0,0,0ece1163,116ef3b3,fe54011a,006bff50,00000000,00000000,0
10,10,0,082b,0,0,0000,0,0,0ece1163,116ef3b3,fe54011a,0097005d,00000000,00000000,0
11,11,0,082b,0,0,0000,0,0,0ece1163,116ef3b3,fe54011a,ff2e01d7,00000000,00000000,0
12,12,0,082b,0,0,0000,0,0,0ece1163,116ef3b3,fe54011a,ffc6011b,00000000,00000000,0
13,13,0,082b,0,0,0000,0,0,0ece1163,116ef3b3,fe54011a,ff9601ae,00000000,00000000,0
14,14,0,082b,0,0,0000,0,0,0ece1163,116ef3b3,fe54011a,ffb40091,00000000,00000000,0
15,15,0,0834,0,0,0000,0,0,ffb40091,116ef3b3,0114fe50,ff0d0231,00000000,00000000,0
16,16,0,0835,0,0,0000,0,0,ff0d0231,116ef3b3,0114fe50,ff0d0231,00000000,00000000,0
17,17,0,0835,0,0,0000,0,0,ff0d0231,116ef3b3,0114fe50,ff0d0231,00000000,00000000,0
18,18,0,0835,0,0,0000,0,0,ff0d0231,116ef3b3,0114fe50,ff0d0231,00000000,00000000,0
19,19,0,0835,0,0,0000,0,0,ff0d0231,116ef3b3,0114fe50,ff0d0231,00000000,00000000,0
20,20,0,0835,0,0,0000,0,0,ff0d0231,116ef3b3,0114fe50,ff0d0231,00000000,00000000,0
21,21,0,0835,0,0,0000,0,0,ff0d0231,116ef3b3,0114fe50,ff0d0231,00000000,00000000,0
22,22,0,0835,0,0,0000,0,0,ff0d0231,116ef3b3,0114fe50,ff0d0231,00000000,00000000,0
23,23,0,0835,0,0,0000,0,0,ff0d0231,116ef3b3,0114fe50,ff0d0231,00000000,00000000,0
24,24,0,0835,0,0,0000,0,0,ff0d0231,116ef3b3,0114fe50,ff0d0231,00000000,00000000,0
25,25,0,0835,0,0,0000,0,0,ff0d0231,116ef3b3,0114fe50,ff0d0231,00000000,00000000,0
26,26,0,0835,0,0,0000,0,0,ff0d0231,116ef3b3,0114fe50,016c002e,00000000,00000000,0
27,27,0,0835,0,0,0000,0,0,ff0d0231,116ef3b3,0114fe50,fc7004ac,00000000,00000000,0
28,28,0,0835,0,0,0000,0,0,ff0d0231,116ef3b3,0114fe50,fe700da1,00000000,00000000,0
29,29,0,0835,0,0,0000,0,0,ff0d0231,116ef3b3,0114fe50,0454fa1f,00000000,00000000,0
30,30,0,0835,0,0,0000,0,0,ff0d0231,116ef3b3,0114fe50,fc78fe1d,00000000,00000000,0
31,31,0,0835,0,0,0000,0,0,ff0d0231,116ef3b3,0114fe50,0e041fea,00000000,00000000,0
32,32,0,0835,0,0,0000,0,0,ff0d0231,116ef3b3,0114fe50,1abc06da,00000000,00000000,0
33,33,0,0835,0,0,0000,0,0,ff0d0231,116ef3b3,0114fe50,f142f27f,00000000,00000000,0
34,34,0,0835,0,0,0000,0,0,ff0d0231,116ef3b3,0114fe50,033f02a4,00000000,00000000,0
35,35,0,083e,0,0,0000,0,0,033f02a4,116ef3b3,00a5ff2b,0609ffd6,00000000,00000000,0
36,36,0,083f,0,0,0000,0,0,0609ffd6,116ef3b3,00a5ff2b,0609ffd6,00000000,00000000,0
37,37,0,083f,0,0,0000,0,0,0609ffd6,116ef3b3,00a5ff2b,0609ffd6,00000000,00000000,0
38,38,0,083f,0,0,0000,0,0,0609ffd6,116ef3b3,00a5ff2b,0609ffd6,00000000,00000000,0
39,39,0,083f,0,0,0000,0,0,0609ffd6,116ef3b3,00a5ff2b,0609ffd6,00000000,00000000,0
40,40,0,083f,0,0,0000,0,0,0609ffd6,116ef3b3,00a5ff2b,0609ffd6,00000000,00000000,0
41,41,0,083f,0,0,0000,0,0,0609ffd6,116ef3b3,00a5ff2b,0609ffd6,00000000,00000000,0
42,42,0,083f,0,0,0000,0,0,0609ffd6,116ef3b3,00a5ff2b,0609ffd6,00000000,00000000,0
43,43,0,083f,0,0,0000,0,0,0609ffd6,116ef3b3,00a5ff2b,0609ffd6,00000000,00000000,0
44,44,0,083f,0,0,0000,0,0,0609ffd6,116ef3b3,00a5ff2b,0609ffd6,00000000,00000000,0
45,45,0,083f,0,0,0000,0,0,0609ffd6,116ef3b3,00a5ff2b,0609ffd6,00000000,00000000,0
46,46,0,083f,0,0,0000,0,0,0609ffd6,116ef3b3,00a5ff2b,f6e5f628,00000000,00000000,0
47,47,0,083f,0,0,0000,0,0,0609ffd6,116ef3b3,00a5ff2b,fbdf0151,00000000,00000000,0
48,48,0,083f,0,0,0000,0,0,0609ffd6,116ef3b3,00a5ff2b,04330b05,00000000,00000000,0
49,49,0,083f,0,0,0000,0,0,0609ffd6,116ef3b3,00a5ff2b,fb7d034f,00000000,00000000,0
50,50,0,083f,0,0,0000,0,0,0609ffd6,116ef3b3,00a5ff2b,fbc7ec3d,00000000,00000000,0
51,51,0,083f,0,0,0000,0,0,0609ffd6,116ef3b3,00a5ff2b,f8e80d40,00000000,00000000,0
52,52,0,083f,0,0,0000,0,0,0609ffd6,116ef3b3,00a5ff2b,011df6e3,00000000,00000000,0
53,53,0,083f,0,0,0000,0,0,0609ffd6,116ef3b3,00a5ff2b,ffdcfeb7,00000000,00000000,0
54,54,0,083f,0,0,0000,0,0,0609ffd6,116ef3b3,00a5ff2b,fe99fc35,00000000,00000000,0
55,55,0,0848,0,0,0000,0,0,fe99fc35,116ef3b3,fff3029e,0022fd87,00000000,00000000,0
56,56,0,0849,0,0,0000,0,0,0022fd87,116ef3b3,fff3029e,0022fd87,00000000,00000000,0
57,57,0,0849,0,0,0000,0,0,0022fd87,116ef3b3,fff3029e,0022fd87,00000000,00000000,0
58,58,0,0849,0,0,0000,0,0,0022fd87,116ef3b3,fff3029e,0022fd87,00000000,00000000,0
59,59,0,0849,0,0,0000,0,0,0022fd87,116ef3b3,fff3029e,0022fd87,00000000,00000000,0
60,60,0,0849,0,0,0000,0,0,0022fd87,116ef3b3,fff3029e,0022fd87,00000000,00000000,0
61,61,0,0849,0,0,0000,0,0,0022fd87,116ef3b3,fff3029e,0022fd87,00000000,00000000,0
62,62,0,0849,0,0,0000,0,0,0022fd87,116ef3b3,fff3029e,0022fd87,00000000,00000000,0
63,63,0,0849,0,0,0000,0,0,0022fd87,116ef3b3,fff3029e,0022fd87,00000000,00000000,0
64,64,0,0849,0,0,0000,0,0,0022fd87,116ef3b3,fff3029e,0022fd87,00000000,00000000,0
65,65,0,0849,0,0,0000,0,0,0022fd87,116ef3b3,fff3029e,0022fd87,00000000,00000000,0
66,66,0,0849,0,0,0000,0,0,0022fd87,116ef3b3,fff3029e,00aafe66,00000000,00000000,0
67,67,0,0849,0,0,0000,0,0,0022fd87,116ef3b3,fff3029e,ff64fe86,00000000,00000000,0
68,68,0,0849,0,0,0000,0,0,0022fd87,116ef3b3,fff3029e,ffd6fe94,00000000,00000000,0
69,69,0,0849,0,0,0000,0,0,0022fd87,116ef3b3,fff3029e,ff62fed7,00000000,00000000,0
70,70,0,0849,0,0,0000,0,0,0022fd87,116ef3b3,fff3029e,0065fe49,00000000,00000000,0
71,71,0,0849,0,0,0000,0,0,0022fd87,116ef3b3,fff3029e,ff16fe1a,00000000,00000000,0
72,72,0,0849,0,0,0000,0,0,0022fd87,116ef3b3,fff3029e,02c6fe76,00000000,00000000,0
73,73,0,0849,0,0,0000,0,0,0022fd87,116ef3b3,fff3029e,ffcffbd2,00000000,00000000,0
74,74,0,0849,0,0,0000,0,0,0022fd87,116ef3b3,fff3029e,f5760181,00000000,00000000,0
75,75,0,0852,0,0,0000,0,0,f5760181,116ef3b3,00aefe73,02a1fdb8,00000000,00000000,0
76,76,0,0853,0,0,0000,0,0,02a1fdb8,116ef3b3,00aefe73,02a1fdb8,00000000,00000000,0
77,77,0,0853,0,0,0000,0,0,02a1fdb8,116ef3b3,00aefe73,02a1fdb8,00000000,00000000,0
78,78,0,0853,0,0,0000,0,0,02a1fdb8,116ef3b3,00aefe73,02a1fdb8,00000000,00000000,0
79,79,0,0853,0,0,0000,0,0,02a1fdb8,116ef3b3,00aefe73,02a1fdb8,00000000,00000000,0
80,80,0,0853,0,0,0000,0,0,02a1fdb8,116ef3b3,00aefe73,02a1fdb8,00000000,00000000,0
81,81,0,0853,0,0,0000,0,0,02a1fdb8,116ef3b3,00aefe73,02a1fdb8,00000000,00000000,0
82,82,0,0853,0,0,0000,0,0,02a1fdb8,116ef3b3,00aefe73,02a1fdb8,00000000,00000000,0
83,83,0,0853,0,0,0000,0,0,02a1fdb8,116ef3b3,00aefe73,02a1fdb8,00000000,00000000,0
84,84,0,0853,0,0,0000,0,0,02a1fdb8,116ef3b3,00aefe73,02a1fdb8,00000000,00000000,0
85,85,0,0853,0,0,0000,0,0,02a1fdb8,116ef3b3,00aefe73,02a1fdb8,00000000,00000000,0
86,86,0,0853,0,0,0000,0,0,02a1fdb8,116ef3b3,00aefe73,03c2f136,00000000,00000000,0
87,87,0,0853,0,0,0000,0,0,02a1fdb8,116ef3b3,00aefe73,f0490ab3,00000000,00000000,0
88,88,0,0853,0,0,0000,0,0,02a1fdb8,116ef3b3,00aefe73,01011c29,00000000,00000000,0
89,89,0,0853,0,0,0000,0,0,02a1fdb8,116ef3b3,00aefe73,002efaf4,00000000,00000000,0
90,90,0,0853,0,0,0000,0,0,02a1fdb8,116ef3b3,00aefe73,fdfd0476,00000000,00000000,0
91,91,0,0853,0,0,0000,0,0,02a1fdb8,116ef3b3,00aefe73,015e0b0e,00000000,00000000,0
92,92,0,0853,0,0,0000,0,0,02a1fdb8,116ef3b3,00aefe73,03b0fbd3,00000000,00000000,0
93,93,0,0853,0,0,0000,0,0,02a1fdb8,116ef3b3,00aefe73,008bfc4f,00000000,00000000,0
94,94,0,0853,0,0,0000,0,0,02a1fdb8,116ef3b3,00aefe73,fc0e0968,00000000,00000000,0
95,95,0,085c,0,0,0000,0,0,fc0e0968,116ef3b3,ff2cfef6,f6bd07b0,00000000,00000000,0
96,96,0,085d,0,0,0000,0,0,f6bd07b0,116ef3b3,ff2cfef6,f6bd07b0,00000000,00000000,0
97,97,0,085d,0,0,0000,0,0,f6bd07b0,116ef3b3,ff2cfef6,f6bd07b0,00000000,00000000,0
98,98,0,085d,0,0,0000,0,0,f6bd07b0,116ef3b3,ff2cfef6,f6bd07b0,00000000,00000000,0
99,99,0,085d,0,0,0000,0,0,f6bd07b0,116ef3b3,ff2cfef6,f6bd07b0,00000000,00000000,0
100,100,0,085d,0,0,0000,0,0,f6bd07b0,116ef3b3,ff2cfef6,f6bd07b0,00000000,00000000,0
101,101,0,085d,0,0,0000,0,0,f6bd07b0,116ef3b3,ff2cfef6,f6bd07b0,00000000,00000000,0
102,102,0,085d,0,0,0000,0,0,f6bd07b0,116ef3b3,ff2cfef6,f6bd07b0,00000000,00000000,0
103,103,0,085d,0,0,0000,0,0,f6bd07b0,116ef3b3,ff2cfef6,f6bd07b0,00000000,00000000,0
104,104,0,085d,0,0,0000,0,0,f6bd07b0,116ef3b3,ff2cfef6,f6bd07b0,00000000,00000000,0
105,105,0,085d,0,0,0000,0,0,f6bd07b0,116ef3b3,ff2cfef6,f6bd07b0,00000000,00000000,0
106,106,0,085d,0,0,0000,0,0,f6bd07b0,116ef3b3,ff2cfef6,0abaf84f,00000000,00000000,0
107,107,0,085d,0,0,0000,0,0,f6bd07b0,116ef3b3,ff2cfef6,f3c6023e,00000000,00000000,0
108,108,0,085d,0,0,0000,0,0,f6bd07b0,116ef3b3,ff2cfef6,0187fe3c,00000000,00000000,0
109,109,0,085d,0,0,0000,0,0,f6bd07b0,116ef3b3,ff2cfef6,ff100090,00000000,00000000,0
110,110,0,085d,0,0,0000,0,0,f6bd07b0,116ef3b3,ff2cfef6,0012fe61,00000000,00000000,0
111,111,0,085d,0,0,0000,0,0,f6bd07b0,116ef3b3,ff2cfef6,0096ff03,00000000,00000000,0
112,112,0,085d,0,0,0000,0,0,f6bd07b0,116ef3b3,ff2cfef6,00ee001d,00000000,00000000,0
113,113,0,085d,0,0,0000,0,0,f6bd07b0,116ef3b3,ff2cfef6,007eff8a,00000000,00000000,0
114,114,0,085d,0,0,0000,0,0,f6bd07b0,116ef3b3,ff2cfef6,00c6ffce,00000000,00000000,0
115,115,0,0866,0,0,0000,0,0,00c6ffce,116ef3b3,ff970161,003fff93,00000000,00000000,0
116,116,0,0867,0,0,0000,0,0,003fff93,116ef3b3,ff970161,003fff93,00000000,00000000,0
117,117,0,0867,0,0,0000,0,0,003fff93,116ef3b3,ff970161,003fff93,00000000,00000000,0
118,118,0,0867,0,0,0000,0,0,003fff93,116ef3b3,ff970161,003fff93,00000000,00000000,0
119,119,0,0867,0,0,0000,0,0,003fff93,116ef3b3,ff970161,003fff93,00000000,00000000,0
120,120,0,0867,0,0,0000,0,0,003fff93,116ef3b3,ff970161,003fff93,00000000,00000000,0
121,121,0,0867,0,0,0000,0,0,003fff93,116ef3b3,ff970161,003fff93,00000000,00000000,0
122,122,0,0867,0,0,0000,0,0,003fff93,116ef3b3,ff970161,003fff93,00000000,00000000,0
123,123,0,0867,0,0,0000,0,0,003fff93,116ef3b3,ff970161,003fff93,00000000,00000000,0
124,124,0,0867,0,0,0000,0,0,003fff93,116ef3b3,ff970161,003fff93,00000000,00000000,0
125,125,0,0867,0,0,0000,0,0,003fff93,116ef3b3,ff970161,003fff93,00000000,00000000,0
126,126,0,0867,0,0,0000,0,0,003fff93,116ef3b3,ff970161,0134002a,00000000,00000000,0
127,127,0,0867,0,0,0000,0,0,003fff93,116ef3b3,ff970161,00b6feb2,00000000,00000000,0
128,128,0,0867,0,0,0000,0,0,003fff93,116ef3b3,ff970161,02d10261,00000000,00000000,0
129,129,0,0867,0,0,0000,0,0,003fff93,116ef3b3,ff970161,06dc0137,00000000,00000000,0
130,130,0,0867,0,0,0000,0,0,003fff93,116ef3b3,ff970161,fbedfa20,00000000,00000000,0
131,131,0,0867,0,0,0000,0,0,003fff93,116ef3b3,ff970161,00a2004d,00000000,00000000,0
132,132,0,0867,0,0,0000,0,0,003fff93,116ef3b3,ff970161,15a5fb0b,00000000,00000000,0
133,133,0,0867,0,0,0000,0,0,003fff93,116ef3b3,ff970161,0103f200,00000000,00000000,0
134,134,0,0867,0,0,0000,0,0,003fff93,116ef3b3,ff970161,eee009ae,00000000,00000000,0
135,135,0,0870,0,0,0000,0,0,eee009ae,116ef3b3,fff4fe5b,0103fe38,00000000,00000000,0
136,136,0,0871,0,0,0000,0,0,0103fe38,116ef3b3,fff4fe5b,0103fe38,00000000,00000000,0
137,137,0,0871,0,0,0000,0,0,0103fe38,116ef3b3,fff4fe5b,0103fe38,00000000,00000000,0
138,138,0,0871,0,0,0000,0,0,0103fe38,116ef3b3,fff4fe5b,0103fe38,00000000,00000000,0
139,139,0,0871,0,0,0000,0,0,0103fe38,116ef3b3,fff4fe5b,0103fe38,00000000,00000000,0
140,140,0,0871,0,0,0000,0,0,0103fe38,116ef3b3,fff4fe5b,0103fe38,00000000,00000000,0
141,141,0,0871,0,0,0000,0,0,0103fe38,116ef3b3,fff4fe5b,0103fe38,00000000,00000000,0
142,142,0,0871,0,0,0000,0,0,0103fe38,116ef3b3,fff4fe5b,0103fe38,00000000,00000000,0
143,143,0,0871,0,0,0000,0,0,0103fe38,116ef3b3,fff4fe5b,0103fe38,00000000,00000000,0
144,144,0,0871,0,0,0000,0,0,0103fe38,116ef3b3,fff4fe5b,0103fe38,00000000,00000000,0
145,145,0,0871,0,0,0000,0,0,0103fe38,116ef3b3,fff4fe5b,0103fe38,00000000,00000000,0
146,146,0,0871,0,0,0000,0,0,0103fe38,116ef3b3,fff4fe5b,fdbafd99,00000000,00000000,0
147,147,0,0871,0,0,0000,0,0,0103fe38,116ef3b3,fff4fe5b,f5f10597,00000000,00000000,0
148,148,0,0871,0,0,0000,0,0,0103fe38,116ef3b3,fff4fe5b,00df02ca,00000000,00000000,0
149,149,0,0871,0,0,0000,0,0,0103fe38,116ef3b3,fff4fe5b,0660ff76,00000000,00000000,0
150,150,0,0871,0,0,0000,0,0,0103fe38,116ef3b3,fff4fe5b,fc180380,00000000,00000000,0
151,151,0,0871,0,0,0000,0,0,0103fe38,116ef3b3,fff4fe5b,f04ffe3f,00000000,00000000,0
152,152,0,0871,0,0,0000,0,0,0103fe38,116ef3b3,fff4fe5b,07d206c5,00000000,00000000,0
153,153,0,0871,0,0,0000,0,0,0103fe38,116ef3b3,fff4fe5b,f7c4fadd,00000000,00000000,0
154,154,0,0871,0,0,0000,0,0,0103fe38,116ef3b3,fff4fe5b,feadff3a,00000000,00000000,0
155,155,0,087a,0,0,0000,0,0,feadff3a,116ef3b3,ff99ff47,fc7cff6c,00000000,00000000,0
156,156,0,087b,0,0,0000,0,0,fc7cff6c,116ef3b3,ff99ff47,fc7cff6c,00000000,00000000,0
157,157,0,087b,0,0,0000,0,0,fc7cff6c,116ef3b3,ff99ff47,fc7cff6c,00000000,00000000,0
158,158,0,087b,0,0,0000,0,0,fc7cff6c,116ef3b3,ff99ff47,fc7cff6c,00000000,00000000,0
159,159,0,087b,0,0,0000,0,0,fc7cff6c,116ef3b3,ff99ff47,fc7cff6c,00000000,00000000,0
160,160,0,087b,0,0,0000,0,0,fc7cff6c,116ef3b3,ff99ff47,fc7cff6c,00000000,00000000,0
161,161,0,087b,0,0,0000,0,0,fc7cff6c,116ef3b3,ff99ff47,fc7cff6c,00000000,00000000,0
162,162,0,087b,0,0,0000,0,0,fc7cff6c,116ef3b3,ff99ff47,fc7cff6c,00000000,00000000,0
163,163,0,087b,0,0,0000,0,0,fc7cff6c,116ef3b3,ff99ff47,fc7cff6c,00000000,00000000,0
164,164,0,087b,0,0,0000,0,0,fc7cff6c,116ef3b3,ff99ff47,fc7cff6c,00000000,00000000,0
165,165,0,087b,0,0,0000,0,0,fc7cff6c,116ef3b3,ff99ff47,fc7cff6c,00000000,00000000,0
166,166,0,087b,0,0,0000,0,0,fc7cff6c,116ef3b3,ff99ff47,fe47febd,00000000,00000000,0
167,167,0,087b,0,0,0000,0,0,fc7cff6c,116ef3b3,ff99ff47,fee3fee8,00000000,00000000,0
168,168,0,087b,0,0,0000,0,0,fc7cff6c,116ef3b3,ff99ff47,fe8ffffa,00000000,00000000,0
169,169,0,087b,0,0,0000,0,0,fc7cff6c,116ef3b3,ff99ff47,fec0ff99,00000000,00000000,0
170,170,0,087b,0,0,0000,0,0,fc7cff6c,116ef3b3,ff99ff47,fecefff9,00000000,00000000,0
171,171,0,087b,0,0,0000,0,0,fc7cff6c,116ef3b3,ff99ff47,fea5ff2f,00000000,00000000,0
172,172,0,087b,0,0,0000,0,0,fc7cff6c,116ef3b3,ff99ff47,fe66002e,00000000,00000000,0
173,173,0,087b,0,0,0000,0,0,fc7cff6c,116ef3b3,ff99ff47,ff7dfe03,00000000,00000000,0
174,174,0,087b,0,0,0000,0,0,fc7cff6c,116ef3b3,ff99ff47,fcff00f9,00000000,00000000,0
175,175,0,0884,0,0,0000,0,0,fcff00f9,116ef3b3,01dc021f,ff7f088d,00000000,00000000,0
176,176,0,0885,0,0,0000,0,0,ff7f088d,116ef3b3,01dc021f,ff7f088d,00000000,00000000,0
177,177,0,0885,0,0,0000,0,0,ff7f088d,116ef3b3,01dc021f,ff7f088d,00000000,00000000,0
178,178,0,0885,0,0,0000,0,0,ff7f088d,116ef3b3,01dc021f,ff7f088d,00000000,00000000,0
179,179,0,0885,0,0,0000,0,0,ff7f088d,116ef3b3,01dc021f,ff7f088d,00000000,00000000,0
180,180,0,0885,0,0,0000,0,0,ff7f088d,116ef3b3,01dc021f,ff7f088d,00000000,00000000,0
181,181,0,0885,0,0,0000,0,0,ff7f088d,116ef3b3,01dc021f,ff7f088d,00000000,00000000,0
182,182,0,0885,0,0,0000,0,0,ff7f088d,116ef3b3,01dc021f,ff7f088d,00000000,00000000,0
183,183,0,0885,0,0,0000,0,0,ff7f088d,116ef3b3,01dc021f,ff7f088d,00000000,00000000,0
184,184,0,0885,0,0,0000,0,0,ff7f088d,116ef3b3,01dc021f,ff7f088d,00000000,00000000,0
185,185,0,0885,0,0,0000,0,0,ff7f088d,116ef3b3,01dc021f,ff7f088d,00000000,00000000,0
186,186,0,0885,0,0,0000,0,0,ff7f088d,116ef3b3,01dc021f,ff8dfbd7,00000000,00000000,0
187,187,0,0885,0,0,0000,0,0,ff7f088d,116ef3b3,01dc021f,f8d4fbf9,00000000,00000000,0
188,188,0,0885,0,0,0000,0,0,ff7f088d,116ef3b3,01dc021f,0aca10f6,00000000,00000000,0
189,189,0,0885,0,0,0000,0,0,ff7f088d,116ef3b3,01dc021f,164002cb,00000000,00000000,0
190,190,0,0885,0,0,0000,0,0,ff7f088d,116ef3b3,01dc021f,f7cdfbc7,00000000,00000000,0
191,191,0,0885,0,0,0000,0,0,ff7f088d,116ef3b3,01dc021f,02dd014d,00000000,00000000,0
192,192,0,0885,0,0,0000,0,0,ff7f088d,116ef3b3,01dc021f,06d8ff6a,00000000,00000000,0
193,193,0,0885,0,0,0000,0,0,ff7f088d,116ef3b3,01dc021f,f9f6fa85,00000000,00000000,0
194,194,0,0885,0,0,0000,0,0,ff7f088d,116ef3b3,01dc021f,fca5ff81,00000000,00000000,0
195,195,0,088e,0,0,0000,0,0,fca5ff81,116ef3b3,ffb0ff43,0617063f,00000000,00000000,0
196,196,0,088f,0,0,0000,0,0,0617063f,116ef3b3,ffb0ff43,0617063f,00000000,00000000,0
197,197,0,088f,0,0,0000,0,0,0617063f,116ef3b3,ffb0ff43,0617063f,00000000,00000000,0
198,198,0,088f,0,0,0000,0,0,0617063f,116ef3b3,ffb0ff43,0617063f,00000000,00000000,0
199,199,0,088f,0,0,0000,0,0,0617063f,116ef3b3,ffb0ff43,0617063f,00000000,00000000,0
200,200,0,088f,0,0,0000,0,0,0617063f,116ef3b3,ffb0ff43,0617063f,00000000,00000000,0
201,201,0,088f,0,0,0000,0,0,0617063f,116ef3b3,ffb0ff43,0617063f,00000000,00000000,0
202,202,0,088f,0,0,0000,0,0,0617063f,116ef3b3,ffb0ff43,0617063f,00000000,00000000,0
203,203,0,088f,0,0,0000,0,0,0617063f,116ef3b3,ffb0ff43,0617063f,00000000,00000000,0
204,204,0,088f,0,0,0000,0,0,0617063f,116ef3b3,ffb0ff43,0617063f,00000000,00000000,0
205,205,0,088f,0,0,0000,0,0,0617063f,116ef3b3,ffb0ff43,0617063f,00000000,00000000,0
206,206,0,088f,0,0,0000,0,0,0617063f,116ef3b3,ffb0ff43,006a0664,00000000,00000000,0
207,207,0,088f,0,0,0000,0,0,0617063f,116ef3b3,ffb0ff43,f974f29f,00000000,00000000,0
208,208,0,088f,0,0,0000,0,0,0617063f,116ef3b3,ffb0ff43,fd5c0ad1,00000000,00000000,0
209,209,0,088f,0,0,0000,0,0,0617063f,116ef3b3,ffb0ff43,fe13fac4,00000000,00000000,0
210,210,0,088f,0,0,0000,0,0,0617063f,116ef3b3,ffb0ff43,ff4fff01,00000000,00000000,0
211,211,0,088f,0,0,0000,0,0,0617063f,116ef3b3,ffb0ff43,fdacfd66,00000000,00000000,0
212,212,0,088f,0,0,0000,0,0,0617063f,116ef3b3,ffb0ff43,fed5fd7f,00000000,00000000,0
213,213,0,088f,0,0,0000,0,0,0617063f,116ef3b3,ffb0ff43,ffcafdc2,00000000,00000000,0
214,214,0,088f,0,0,0000,0,0,0617063f,116ef3b3,ffb0ff43,fefefe19,00000000,00000000,0
215,215,0,0898,0,0,0000,0,0,fefefe19,116ef3b3,fd04fed4,ff56fdfa,00000000,00000000,0
216,216,0,0899,0,0,0000,0,0,ff56fdfa,116ef3b3,fd04fed4,ff56fdfa,00000000,00000000,0
217,217,0,0899,0,0,0000,0,0,ff56fdfa,116ef3b3,fd04fed4,ff56fdfa,00000000,00000000,0
218,218,0,0899,0,0,0000,0,0,ff56fdfa,116ef3b3,fd04fed4,ff56fdfa,00000000,00000000,0
219,219,0,0899,0,0,0000,0,0,ff56fdfa,116ef3b3,fd04fed4,ff56fdfa,00000000,00000000,0
220,220,0,0899,0,0,0000,0,0,ff56fdfa,116ef3b3,fd04fed4,ff56fdfa,00000000,00000000,0
221,221,0,0899,0,0,0000,0,0,ff56fdfa,116ef3b3,fd04fed4,ff56fdfa,00000000,00000000,0
222,222,0,0899,0,0,0000,0,0,ff56fdfa,116ef3b3,fd04fed4,ff56fdfa,00000000,00000000,0
223,223,0,0899,0,0,0000,0,0,ff56fdfa,116ef3b3,fd04fed4,ff56fdfa,00000000,00000000,0
224,224,0,0899,0,0,0000,0,0,ff56fdfa,116ef3b3,fd04fed4,ff56fdfa,00000000,00000000,0
225,225,0,0899,0,0,0000,0,0,ff56fdfa,116ef3b3,fd04fed4,ff56fdfa,00000000,00000000,0
226,226,0,0899,0,0,0000,0,0,ff56fdfa,116ef3b3,fd04fed4,ff03fe52,00000000,00000000,0
227,227,0,0899,0,0,0000,0,0,ff56fdfa,116ef3b3,fd04fed4,ffcbfd87,00000000,00000000,0
228,228,0,0899,0,0,0000,0,0,ff56fdfa,116ef3b3,fd04fed4,fe7efd8c,00000000,00000000,0
229,229,0,0899,0,0,0000,0,0,ff56fdfa,116ef3b3,fd04fed4,0250fc99,00000000,00000000,0
230,230,0,0899,0,0,0000,0,0,ff56fdfa,116ef3b3,fd04fed4,008ff9b6,00000000,00000000,0
231,231,0,0899,0,0,0000,0,0,ff56fdfa,116ef3b3,fd04fed4,f7480204,00000000,00000000,0
232,232,0,0899,0,0,0000,0,0,ff56fdfa,116ef3b3,fd04fed4,0070fcb1,00000000,00000000,0
233,233,0,0899,0,0,0000,0,0,ff56fdfa,116ef3b3,fd04fed4,ffd6eb44,00000000,00000000,0
234,234,0,0899,0,0,0000,0,0,ff56fdfa,116ef3b3,fd04fed4,f2a603cb,00000000,00000000,0
