Sample in Buffer,Sample in Window,TRIGGER,u_FFT_Top/current_state[2:0],u_FFT_Top/next_state[2:0],u_FFT_Top/row_count[3:0],u_FFT_Top/col_count[7:0],u_FFT_Top/data_count[7:0],u_FFT_Top/ram_we,u_FFT_Top/s_axis_data_tvalid,u_FFT_Top/s_axis_data_tready,u_FFT_Top/fft_256_valid_out,u_FFT_Top/fft_256_ready_out,u_FFT_Top/fft_16_valid_out_1,u_FFT_Top/fft_16_ready_in
0,0,0,1,1,f,00,29,1,1,0,1,0,0,1
1,1,0,1,1,f,00,29,0,1,0,1,0,0,1
2,2,0,1,1,f,00,2a,0,1,0,1,0,0,1
3,3,0,1,1,f,00,2b,0,1,0,1,0,0,1
4,4,0,1,1,f,00,2c,0,1,0,1,0,0,1
5,5,0,1,1,f,00,2d,0,1,0,1,0,0,1
6,6,0,1,1,f,00,2e,0,1,0,1,0,0,1
7,7,0,1,1,f,00,2f,0,1,0,1,0,0,1
8,8,0,1,1,f,00,30,0,1,0,1,0,0,1
9,9,0,1,1,f,00,31,0,1,0,1,0,0,1
10,10,0,1,1,f,00,32,0,1,1,1,1,0,1
11,11,0,1,1,f,00,33,1,1,0,1,1,0,1
12,12,0,1,1,f,00,33,1,1,0,1,1,0,1
13,13,0,1,1,f,00,33,1,1,0,1,1,0,1
14,14,0,1,1,f,00,33,1,1,0,1,1,0,1
15,15,0,1,1,f,00,33,1,1,0,1,1,0,1
16,16,0,1,1,f,00,33,1,1,0,1,1,0,1
17,17,0,1,1,f,00,33,1,1,0,1,1,0,1
18,18,0,1,1,f,00,33,1,1,0,1,1,0,1
19,19,0,1,1,f,00,33,1,1,0,1,1,0,1
20,20,0,1,1,f,00,33,1,1,0,1,0,0,1
21,21,0,1,1,f,00,33,0,1,0,1,0,0,1
22,22,0,1,1,f,00,34,0,1,0,1,0,0,1
23,23,0,1,1,f,00,35,0,1,0,1,0,0,1
24,24,0,1,1,f,00,36,0,1,0,1,0,0,1
25,25,0,1,1,f,00,37,0,1,0,1,0,0,1
26,26,0,1,1,f,00,38,0,1,0,1,0,0,1
27,27,0,1,1,f,00,39,0,1,0,1,0,0,1
28,28,0,1,1,f,00,3a,0,1,0,1,0,0,1
29,29,0,1,1,f,00,3b,0,1,0,1,0,0,1
30,30,0,1,1,f,00,3c,0,1,1,1,1,0,1
31,31,0,1,1,f,00,3d,1,1,0,1,1,0,1
32,32,0,1,1,f,00,3d,1,1,0,1,1,0,1
33,33,0,1,1,f,00,3d,1,1,0,1,1,0,1
34,34,0,1,1,f,00,3d,1,1,0,1,1,0,1
35,35,0,1,1,f,00,3d,1,1,0,1,1,0,1
36,36,0,1,1,f,00,3d,1,1,0,1,1,0,1
37,37,0,1,1,f,00,3d,1,1,0,1,1,0,1
38,38,0,1,1,f,00,3d,1,1,0,1,1,0,1
39,39,0,1,1,f,00,3d,1,1,0,1,1,0,1
40,40,0,1,1,f,00,3d,1,1,0,1,0,0,1
41,41,0,1,1,f,00,3d,0,1,0,1,0,0,1
42,42,0,1,1,f,00,3e,0,1,0,1,0,0,1
43,43,0,1,1,f,00,3f,0,1,0,1,0,0,1
44,44,0,1,1,f,00,40,0,1,0,1,0,0,1
45,45,0,1,1,f,00,41,0,1,0,1,0,0,1
46,46,0,1,1,f,00,42,0,1,0,1,0,0,1
47,47,0,1,1,f,00,43,0,1,0,1,0,0,1
48,48,0,1,1,f,00,44,0,1,0,1,0,0,1
49,49,0,1,1,f,00,45,0,1,0,1,0,0,1
50,50,0,1,1,f,00,46,0,1,1,1,1,0,1
51,51,0,1,1,f,00,47,1,1,0,1,1,0,1
52,52,0,1,1,f,00,47,1,1,0,1,1,0,1
53,53,0,1,1,f,00,47,1,1,0,1,1,0,1
54,54,0,1,1,f,00,47,1,1,0,1,1,0,1
55,55,0,1,1,f,00,47,1,1,0,1,1,0,1
56,56,0,1,1,f,00,47,1,1,0,1,1,0,1
57,57,0,1,1,f,00,47,1,1,0,1,1,0,1
58,58,0,1,1,f,00,47,1,1,0,1,1,0,1
59,59,0,1,1,f,00,47,1,1,0,1,1,0,1
60,60,0,1,1,f,00,47,1,1,0,1,0,0,1
61,61,0,1,1,f,00,47,0,1,0,1,0,0,1
62,62,0,1,1,f,00,48,0,1,0,1,0,0,1
63,63,0,1,1,f,00,49,0,1,0,1,0,0,1
64,64,0,1,1,f,00,4a,0,1,0,1,0,0,1
65,65,0,1,1,f,00,4b,0,1,0,1,0,0,1
66,66,0,1,1,f,00,4c,0,1,0,1,0,0,1
67,67,0,1,1,f,00,4d,0,1,0,1,0,0,1
68,68,0,1,1,f,00,4e,0,1,0,1,0,0,1
69,69,0,1,1,f,00,4f,0,1,0,1,0,0,1
70,70,0,1,1,f,00,50,0,1,1,1,1,0,1
71,71,0,1,1,f,00,51,1,1,0,1,1,0,1
72,72,0,1,1,f,00,51,1,1,0,1,1,0,1
73,73,0,1,1,f,00,51,1,1,0,1,1,0,1
74,74,0,1,1,f,00,51,1,1,0,1,1,0,1
75,75,0,1,1,f,00,51,1,1,0,1,1,0,1
76,76,0,1,1,f,00,51,1,1,0,1,1,0,1
77,77,0,1,1,f,00,51,1,1,0,1,1,0,1
78,78,0,1,1,f,00,51,1,1,0,1,1,0,1
79,79,0,1,1,f,00,51,1,1,0,1,1,0,1
80,80,0,1,1,f,00,51,1,1,0,1,0,0,1
81,81,0,1,1,f,00,51,0,1,0,1,0,0,1
82,82,0,1,1,f,00,52,0,1,0,1,0,0,1
83,83,0,1,1,f,00,53,0,1,0,1,0,0,1
84,84,0,1,1,f,00,54,0,1,0,1,0,0,1
85,85,0,1,1,f,00,55,0,1,0,1,0,0,1
86,86,0,1,1,f,00,56,0,1,0,1,0,0,1
87,87,0,1,1,f,00,57,0,1,0,1,0,0,1
88,88,0,1,1,f,00,58,0,1,0,1,0,0,1
89,89,0,1,1,f,00,59,0,1,0,1,0,0,1
90,90,0,1,1,f,00,5a,0,1,1,1,1,0,1
91,91,0,1,1,f,00,5b,1,1,0,1,1,0,1
92,92,0,1,1,f,00,5b,1,1,0,1,1,0,1
93,93,0,1,1,f,00,5b,1,1,0,1,1,0,1
94,94,0,1,1,f,00,5b,1,1,0,1,1,0,1
95,95,0,1,1,f,00,5b,1,1,0,1,1,0,1
96,96,0,1,1,f,00,5b,1,1,0,1,1,0,1
97,97,0,1,1,f,00,5b,1,1,0,1,1,0,1
98,98,0,1,1,f,00,5b,1,1,0,1,1,0,1
99,99,0,1,1,f,00,5b,1,1,0,1,1,0,1
100,100,0,1,1,f,00,5b,1,1,0,1,0,0,1
101,101,0,1,1,f,00,5b,0,1,0,1,0,0,1
102,102,0,1,1,f,00,5c,0,1,0,1,0,0,1
103,103,0,1,1,f,00,5d,0,1,0,1,0,0,1
104,104,0,1,1,f,00,5e,0,1,0,1,0,0,1
105,105,0,1,1,f,00,5f,0,1,0,1,0,0,1
106,106,0,1,1,f,00,60,0,1,0,1,0,0,1
107,107,0,1,1,f,00,61,0,1,0,1,0,0,1
108,108,0,1,1,f,00,62,0,1,0,1,0,0,1
109,109,0,1,1,f,00,63,0,1,0,1,0,0,1
110,110,0,1,1,f,00,64,0,1,1,1,1,0,1
111,111,0,1,1,f,00,65,1,1,0,1,1,0,1
112,112,0,1,1,f,00,65,1,1,0,1,1,0,1
113,113,0,1,1,f,00,65,1,1,0,1,1,0,1
114,114,0,1,1,f,00,65,1,1,0,1,1,0,1
115,115,0,1,1,f,00,65,1,1,0,1,1,0,1
116,116,0,1,1,f,00,65,1,1,0,1,1,0,1
117,117,0,1,1,f,00,65,1,1,0,1,1,0,1
118,118,0,1,1,f,00,65,1,1,0,1,1,0,1
119,119,0,1,1,f,00,65,1,1,0,1,1,0,1
120,120,0,1,1,f,00,65,1,1,0,1,0,0,1
121,121,0,1,1,f,00,65,0,1,0,1,0,0,1
122,122,0,1,1,f,00,66,0,1,0,1,0,0,1
123,123,0,1,1,f,00,67,0,1,0,1,0,0,1
124,124,0,1,1,f,00,68,0,1,0,1,0,0,1
125,125,0,1,1,f,00,69,0,1,0,1,0,0,1
126,126,0,1,1,f,00,6a,0,1,0,1,0,0,1
127,127,0,1,1,f,00,6b,0,1,0,1,0,0,1
128,128,0,1,1,f,00,6c,0,1,0,1,0,0,1
129,129,0,1,1,f,00,6d,0,1,0,1,0,0,1
130,130,0,1,1,f,00,6e,0,1,1,1,1,0,1
131,131,0,1,1,f,00,6f,1,1,0,1,1,0,1
132,132,0,1,1,f,00,6f,1,1,0,1,1,0,1
133,133,0,1,1,f,00,6f,1,1,0,1,1,0,1
134,134,0,1,1,f,00,6f,1,1,0,1,1,0,1
135,135,0,1,1,f,00,6f,1,1,0,1,1,0,1
136,136,0,1,1,f,00,6f,1,1,0,1,1,0,1
137,137,0,1,1,f,00,6f,1,1,0,1,1,0,1
138,138,0,1,1,f,00,6f,1,1,0,1,1,0,1
139,139,0,1,1,f,00,6f,1,1,0,1,1,0,1
140,140,0,1,1,f,00,6f,1,1,0,1,0,0,1
141,141,0,1,1,f,00,6f,0,1,0,1,0,0,1
142,142,0,1,1,f,00,70,0,1,0,1,0,0,1
143,143,0,1,1,f,00,71,0,1,0,1,0,0,1
144,144,0,1,1,f,00,72,0,1,0,1,0,0,1
145,145,0,1,1,f,00,73,0,1,0,1,0,0,1
146,146,0,1,1,f,00,74,0,1,0,1,0,0,1
147,147,0,1,1,f,00,75,0,1,0,1,0,0,1
148,148,0,1,1,f,00,76,0,1,0,1,0,0,1
149,149,0,1,1,f,00,77,0,1,0,1,0,0,1
150,150,0,1,1,f,00,78,0,1,1,1,1,0,1
151,151,0,1,1,f,00,79,1,1,0,1,1,0,1
152,152,0,1,1,f,00,79,1,1,0,1,1,0,1
153,153,0,1,1,f,00,79,1,1,0,1,1,0,1
154,154,0,1,1,f,00,79,1,1,0,1,1,0,1
155,155,0,1,1,f,00,79,1,1,0,1,1,0,1
156,156,0,1,1,f,00,79,1,1,0,1,1,0,1
157,157,0,1,1,f,00,79,1,1,0,1,1,0,1
158,158,0,1,1,f,00,79,1,1,0,1,1,0,1
159,159,0,1,1,f,00,79,1,1,0,1,1,0,1
160,160,0,1,1,f,00,79,1,1,0,1,0,0,1
161,161,0,1,1,f,00,79,0,1,0,1,0,0,1
162,162,0,1,1,f,00,7a,0,1,0,1,0,0,1
163,163,0,1,1,f,00,7b,0,1,0,1,0,0,1
164,164,0,1,1,f,00,7c,0,1,0,1,0,0,1
165,165,0,1,1,f,00,7d,0,1,0,1,0,0,1
166,166,0,1,1,f,00,7e,0,1,0,1,0,0,1
167,167,0,1,1,f,00,7f,0,1,0,1,0,0,1
168,168,0,1,1,f,00,80,0,1,0,1,0,0,1
169,169,0,1,1,f,00,81,0,1,0,1,0,0,1
170,170,0,1,1,f,00,82,0,1,1,1,1,0,1
171,171,0,1,1,f,00,83,1,1,0,1,1,0,1
172,172,0,1,1,f,00,83,1,1,0,1,1,0,1
173,173,0,1,1,f,00,83,1,1,0,1,1,0,1
174,174,0,1,1,f,00,83,1,1,0,1,1,0,1
175,175,0,1,1,f,00,83,1,1,0,1,1,0,1
176,176,0,1,1,f,00,83,1,1,0,1,1,0,1
177,177,0,1,1,f,00,83,1,1,0,1,1,0,1
178,178,0,1,1,f,00,83,1,1,0,1,1,0,1
179,179,0,1,1,f,00,83,1,1,0,1,1,0,1
180,180,0,1,1,f,00,83,1,1,0,1,0,0,1
181,181,0,1,1,f,00,83,0,1,0,1,0,0,1
182,182,0,1,1,f,00,84,0,1,0,1,0,0,1
183,183,0,1,1,f,00,85,0,1,0,1,0,0,1
184,184,0,1,1,f,00,86,0,1,0,1,0,0,1
185,185,0,1,1,f,00,87,0,1,0,1,0,0,1
186,186,0,1,1,f,00,88,0,1,0,1,0,0,1
187,187,0,1,1,f,00,89,0,1,0,1,0,0,1
188,188,0,1,1,f,00,8a,0,1,0,1,0,0,1
189,189,0,1,1,f,00,8b,0,1,0,1,0,0,1
190,190,0,1,1,f,00,8c,0,1,1,1,1,0,1
191,191,0,1,1,f,00,8d,1,1,0,1,1,0,1
192,192,0,1,1,f,00,8d,1,1,0,1,1,0,1
193,193,0,1,1,f,00,8d,1,1,0,1,1,0,1
194,194,0,1,1,f,00,8d,1,1,0,1,1,0,1
195,195,0,1,1,f,00,8d,1,1,0,1,1,0,1
196,196,0,1,1,f,00,8d,1,1,0,1,1,0,1
197,197,0,1,1,f,00,8d,1,1,0,1,1,0,1
198,198,0,1,1,f,00,8d,1,1,0,1,1,0,1
199,199,0,1,1,f,00,8d,1,1,0,1,1,0,1
200,200,0,1,1,f,00,8d,1,1,0,1,0,0,1
201,201,0,1,1,f,00,8d,0,1,0,1,0,0,1
202,202,0,1,1,f,00,8e,0,1,0,1,0,0,1
203,203,0,1,1,f,00,8f,0,1,0,1,0,0,1
204,204,0,1,1,f,00,90,0,1,0,1,0,0,1
205,205,0,1,1,f,00,91,0,1,0,1,0,0,1
206,206,0,1,1,f,00,92,0,1,0,1,0,0,1
207,207,0,1,1,f,00,93,0,1,0,1,0,0,1
208,208,0,1,1,f,00,94,0,1,0,1,0,0,1
209,209,0,1,1,f,00,95,0,1,0,1,0,0,1
210,210,0,1,1,f,00,96,0,1,1,1,1,0,1
211,211,0,1,1,f,00,97,1,1,0,1,1,0,1
212,212,0,1,1,f,00,97,1,1,0,1,1,0,1
213,213,0,1,1,f,00,97,1,1,0,1,1,0,1
214,214,0,1,1,f,00,97,1,1,0,1,1,0,1
215,215,0,1,1,f,00,97,1,1,0,1,1,0,1
216,216,0,1,1,f,00,97,1,1,0,1,1,0,1
217,217,0,1,1,f,00,97,1,1,0,1,1,0,1
218,218,0,1,1,f,00,97,1,1,0,1,1,0,1
219,219,0,1,1,f,00,97,1,1,0,1,1,0,1
220,220,0,1,1,f,00,97,1,1,0,1,0,0,1
221,221,0,1,1,f,00,97,0,1,0,1,0,0,1
222,222,0,1,1,f,00,98,0,1,0,1,0,0,1
223,223,0,1,1,f,00,99,0,1,0,1,0,0,1
224,224,0,1,1,f,00,9a,0,1,0,1,0,0,1
225,225,0,1,1,f,00,9b,0,1,0,1,0,0,1
226,226,0,1,1,f,00,9c,0,1,0,1,0,0,1
227,227,0,1,1,f,00,9d,0,1,0,1,0,0,1
228,228,0,1,1,f,00,9e,0,1,0,1,0,0,1
229,229,0,1,1,f,00,9f,0,1,0,1,0,0,1
230,230,0,1,1,f,00,a0,0,1,1,1,1,0,1
231,231,0,1,1,f,00,a1,1,1,0,1,1,0,1
232,232,0,1,1,f,00,a1,1,1,0,1,1,0,1
233,233,0,1,1,f,00,a1,1,1,0,1,1,0,1
234,234,0,1,1,f,00,a1,1,1,0,1,1,0,1
235,235,0,1,1,f,00,a1,1,1,0,1,1,0,1
236,236,0,1,1,f,00,a1,1,1,0,1,1,0,1
237,237,0,1,1,f,00,a1,1,1,0,1,1,0,1
238,238,0,1,1,f,00,a1,1,1,0,1,1,0,1
239,239,0,1,1,f,00,a1,1,1,0,1,1,0,1
240,240,0,1,1,f,00,a1,1,1,0,1,0,0,1
241,241,0,1,1,f,00,a1,0,1,0,1,0,0,1
242,242,0,1,1,f,00,a2,0,1,0,1,0,0,1
243,243,0,1,1,f,00,a3,0,1,0,1,0,0,1
244,244,0,1,1,f,00,a4,0,1,0,1,0,0,1
245,245,0,1,1,f,00,a5,0,1,0,1,0,0,1
246,246,0,1,1,f,00,a6,0,1,0,1,0,0,1
247,247,0,1,1,f,00,a7,0,1,0,1,0,0,1
248,248,0,1,1,f,00,a8,0,1,0,1,0,0,1
249,249,0,1,1,f,00,a9,0,1,0,1,0,0,1
250,250,0,1,1,f,00,aa,0,1,1,1,1,0,1
251,251,0,1,1,f,00,ab,1,1,0,1,1,0,1
252,252,0,1,1,f,00,ab,1,1,0,1,1,0,1
253,253,0,1,1,f,00,ab,1,1,0,1,1,0,1
254,254,0,1,1,f,00,ab,1,1,0,1,1,0,1
255,255,0,1,1,f,00,ab,1,1,0,1,1,0,1
256,256,0,1,1,f,00,ab,1,1,0,1,1,0,1
257,257,0,1,1,f,00,ab,1,1,0,1,1,0,1
258,258,0,1,1,f,00,ab,1,1,0,1,1,0,1
259,259,0,1,1,f,00,ab,1,1,0,1,1,0,1
260,260,0,1,1,f,00,ab,1,1,0,1,0,0,1
261,261,0,1,1,f,00,ab,0,1,0,1,0,0,1
262,262,0,1,1,f,00,ac,0,1,0,1,0,0,1
263,263,0,1,1,f,00,ad,0,1,0,1,0,0,1
264,264,0,1,1,f,00,ae,0,1,0,1,0,0,1
265,265,0,1,1,f,00,af,0,1,0,1,0,0,1
266,266,0,1,1,f,00,b0,0,1,0,1,0,0,1
267,267,0,1,1,f,00,b1,0,1,0,1,0,0,1
268,268,0,1,1,f,00,b2,0,1,0,1,0,0,1
269,269,0,1,1,f,00,b3,0,1,0,1,0,0,1
270,270,0,1,1,f,00,b4,0,1,1,1,1,0,1
271,271,0,1,1,f,00,b5,1,1,0,1,1,0,1
272,272,0,1,1,f,00,b5,1,1,0,1,1,0,1
273,273,0,1,1,f,00,b5,1,1,0,1,1,0,1
274,274,0,1,1,f,00,b5,1,1,0,1,1,0,1
275,275,0,1,1,f,00,b5,1,1,0,1,1,0,1
276,276,0,1,1,f,00,b5,1,1,0,1,1,0,1
277,277,0,1,1,f,00,b5,1,1,0,1,1,0,1
278,278,0,1,1,f,00,b5,1,1,0,1,1,0,1
279,279,0,1,1,f,00,b5,1,1,0,1,1,0,1
280,280,0,1,1,f,00,b5,1,1,0,1,0,0,1
281,281,0,1,1,f,00,b5,0,1,0,1,0,0,1
282,282,0,1,1,f,00,b6,0,1,0,1,0,0,1
283,283,0,1,1,f,00,b7,0,1,0,1,0,0,1
284,284,0,1,1,f,00,b8,0,1,0,1,0,0,1
285,285,0,1,1,f,00,b9,0,1,0,1,0,0,1
286,286,0,1,1,f,00,ba,0,1,0,1,0,0,1
287,287,0,1,1,f,00,bb,0,1,0,1,0,0,1
288,288,0,1,1,f,00,bc,0,1,0,1,0,0,1
289,289,0,1,1,f,00,bd,0,1,0,1,0,0,1
290,290,0,1,1,f,00,be,0,1,1,1,1,0,1
291,291,0,1,1,f,00,bf,1,1,0,1,1,0,1
292,292,0,1,1,f,00,bf,1,1,0,1,1,0,1
293,293,0,1,1,f,00,bf,1,1,0,1,1,0,1
294,294,0,1,1,f,00,bf,1,1,0,1,1,0,1
295,295,0,1,1,f,00,bf,1,1,0,1,1,0,1
296,296,0,1,1,f,00,bf,1,1,0,1,1,0,1
297,297,0,1,1,f,00,bf,1,1,0,1,1,0,1
298,298,0,1,1,f,00,bf,1,1,0,1,1,0,1
299,299,0,1,1,f,00,bf,1,1,0,1,1,0,1
300,300,0,1,1,f,00,bf,1,1,0,1,0,0,1
301,301,0,1,1,f,00,bf,0,1,0,1,0,0,1
302,302,0,1,1,f,00,c0,0,1,0,1,0,0,1
303,303,0,1,1,f,00,c1,0,1,0,1,0,0,1
304,304,0,1,1,f,00,c2,0,1,0,1,0,0,1
305,305,0,1,1,f,00,c3,0,1,0,1,0,0,1
306,306,0,1,1,f,00,c4,0,1,0,1,0,0,1
307,307,0,1,1,f,00,c5,0,1,0,1,0,0,1
308,308,0,1,1,f,00,c6,0,1,0,1,0,0,1
309,309,0,1,1,f,00,c7,0,1,0,1,0,0,1
310,310,0,1,1,f,00,c8,0,1,1,1,1,0,1
311,311,0,1,1,f,00,c9,1,1,0,1,1,0,1
312,312,0,1,1,f,00,c9,1,1,0,1,1,0,1
313,313,0,1,1,f,00,c9,1,1,0,1,1,0,1
314,314,0,1,1,f,00,c9,1,1,0,1,1,0,1
315,315,0,1,1,f,00,c9,1,1,0,1,1,0,1
316,316,0,1,1,f,00,c9,1,1,0,1,1,0,1
317,317,0,1,1,f,00,c9,1,1,0,1,1,0,1
318,318,0,1,1,f,00,c9,1,1,0,1,1,0,1
319,319,0,1,1,f,00,c9,1,1,0,1,1,0,1
320,320,0,1,1,f,00,c9,1,1,0,1,0,0,1
321,321,0,1,1,f,00,c9,0,1,0,1,0,0,1
322,322,0,1,1,f,00,ca,0,1,0,1,0,0,1
323,323,0,1,1,f,00,cb,0,1,0,1,0,0,1
324,324,0,1,1,f,00,cc,0,1,0,1,0,0,1
325,325,0,1,1,f,00,cd,0,1,0,1,0,0,1
326,326,0,1,1,f,00,ce,0,1,0,1,0,0,1
327,327,0,1,1,f,00,cf,0,1,0,1,0,0,1
328,328,0,1,1,f,00,d0,0,1,0,1,0,0,1
329,329,0,1,1,f,00,d1,0,1,0,1,0,0,1
330,330,0,1,1,f,00,d2,0,1,1,1,1,0,1
331,331,0,1,1,f,00,d3,1,1,0,1,1,0,1
332,332,0,1,1,f,00,d3,1,1,0,1,1,0,1
333,333,0,1,1,f,00,d3,1,1,0,1,1,0,1
334,334,0,1,1,f,00,d3,1,1,0,1,1,0,1
335,335,0,1,1,f,00,d3,1,1,0,1,1,0,1
336,336,0,1,1,f,00,d3,1,1,0,1,1,0,1
337,337,0,1,1,f,00,d3,1,1,0,1,1,0,1
338,338,0,1,1,f,00,d3,1,1,0,1,1,0,1
339,339,0,1,1,f,00,d3,1,1,0,1,1,0,1
340,340,0,1,1,f,00,d3,1,1,0,1,0,0,1
341,341,0,1,1,f,00,d3,0,1,0,1,0,0,1
342,342,0,1,1,f,00,d4,0,1,0,1,0,0,1
343,343,0,1,1,f,00,d5,0,1,0,1,0,0,1
344,344,0,1,1,f,00,d6,0,1,0,1,0,0,1
345,345,0,1,1,f,00,d7,0,1,0,1,0,0,1
346,346,0,1,1,f,00,d8,0,1,0,1,0,0,1
347,347,0,1,1,f,00,d9,0,1,0,1,0,0,1
348,348,0,1,1,f,00,da,0,1,0,1,0,0,1
349,349,0,1,1,f,00,db,0,1,0,1,0,0,1
350,350,0,1,1,f,00,dc,0,1,1,1,1,0,1
351,351,0,1,1,f,00,dd,1,1,0,1,1,0,1
352,352,0,1,1,f,00,dd,1,1,0,1,1,0,1
353,353,0,1,1,f,00,dd,1,1,0,1,1,0,1
354,354,0,1,1,f,00,dd,1,1,0,1,1,0,1
355,355,0,1,1,f,00,dd,1,1,0,1,1,0,1
356,356,0,1,1,f,00,dd,1,1,0,1,1,0,1
357,357,0,1,1,f,00,dd,1,1,0,1,1,0,1
358,358,0,1,1,f,00,dd,1,1,0,1,1,0,1
359,359,0,1,1,f,00,dd,1,1,0,1,1,0,1
360,360,0,1,1,f,00,dd,1,1,0,1,0,0,1
361,361,0,1,1,f,00,dd,0,1,0,1,0,0,1
362,362,0,1,1,f,00,de,0,1,0,1,0,0,1
363,363,0,1,1,f,00,df,0,1,0,1,0,0,1
364,364,0,1,1,f,00,e0,0,1,0,1,0,0,1
365,365,0,1,1,f,00,e1,0,1,0,1,0,0,1
366,366,0,1,1,f,00,e2,0,1,0,1,0,0,1
367,367,0,1,1,f,00,e3,0,1,0,1,0,0,1
368,368,0,1,1,f,00,e4,0,1,0,1,0,0,1
369,369,0,1,1,f,00,e5,0,1,0,1,0,0,1
370,370,0,1,1,f,00,e6,0,1,1,1,1,0,1
371,371,0,1,1,f,00,e7,1,1,0,1,1,0,1
372,372,0,1,1,f,00,e7,1,1,0,1,1,0,1
373,373,0,1,1,f,00,e7,1,1,0,1,1,0,1
374,374,0,1,1,f,00,e7,1,1,0,1,1,0,1
375,375,0,1,1,f,00,e7,1,1,0,1,1,0,1
376,376,0,1,1,f,00,e7,1,1,0,1,1,0,1
377,377,0,1,1,f,00,e7,1,1,0,1,1,0,1
378,378,0,1,1,f,00,e7,1,1,0,1,1,0,1
379,379,0,1,1,f,00,e7,1,1,0,1,1,0,1
380,380,0,1,1,f,00,e7,1,1,0,1,0,0,1
381,381,0,1,1,f,00,e7,0,1,0,1,0,0,1
382,382,0,1,1,f,00,e8,0,1,0,1,0,0,1
383,383,0,1,1,f,00,e9,0,1,0,1,0,0,1
384,384,0,1,1,f,00,ea,0,1,0,1,0,0,1
385,385,0,1,1,f,00,eb,0,1,0,1,0,0,1
386,386,0,1,1,f,00,ec,0,1,0,1,0,0,1
387,387,0,1,1,f,00,ed,0,1,0,1,0,0,1
388,388,0,1,1,f,00,ee,0,1,0,1,0,0,1
389,389,0,1,1,f,00,ef,0,1,0,1,0,0,1
390,390,0,1,1,f,00,f0,0,1,1,1,1,0,1
391,391,0,1,1,f,00,f1,1,1,0,1,1,0,1
392,392,0,1,1,f,00,f1,1,1,0,1,1,0,1
393,393,0,1,1,f,00,f1,1,1,0,1,1,0,1
394,394,0,1,1,f,00,f1,1,1,0,1,1,0,1
395,395,0,1,1,f,00,f1,1,1,0,1,1,0,1
396,396,0,1,1,f,00,f1,1,1,0,1,1,0,1
397,397,0,1,1,f,00,f1,1,1,0,1,1,0,1
398,398,0,1,1,f,00,f1,1,1,0,1,1,0,1
399,399,0,1,1,f,00,f1,1,1,0,1,1,0,1
400,400,0,1,1,f,00,f1,1,1,0,1,0,0,1
401,401,0,1,1,f,00,f1,0,1,0,1,0,0,1
402,402,0,1,1,f,00,f2,0,1,0,1,0,0,1
403,403,0,1,1,f,00,f3,0,1,0,1,0,0,1
404,404,0,1,1,f,00,f4,0,1,0,1,0,0,1
405,405,0,1,1,f,00,f5,0,1,0,1,0,0,1
406,406,0,1,1,f,00,f6,0,1,0,1,0,0,1
407,407,0,1,1,f,00,f7,0,1,0,1,0,0,1
408,408,0,1,1,f,00,f8,0,1,0,1,0,0,1
409,409,0,1,1,f,00,f9,0,1,0,1,0,0,1
410,410,0,1,1,f,00,fa,0,1,1,1,1,0,1
411,411,0,1,1,f,00,fb,1,1,0,1,1,0,1
412,412,0,1,1,f,00,fb,1,1,0,1,1,0,1
413,413,0,1,1,f,00,fb,1,1,0,1,1,0,1
414,414,0,1,1,f,00,fb,1,1,0,1,1,0,1
415,415,0,1,1,f,00,fb,1,1,0,1,1,0,1
416,416,0,1,1,f,00,fb,1,1,0,1,1,0,1
417,417,0,1,1,f,00,fb,1,1,0,1,1,0,1
418,418,0,1,1,f,00,fb,1,1,0,1,1,0,1
419,419,0,1,1,f,00,fb,1,1,0,1,1,0,1
420,420,0,1,1,f,00,fb,1,1,0,1,0,0,1
421,421,0,1,1,f,00,fb,0,1,0,1,0,0,1
422,422,0,1,1,f,00,fc,0,1,0,1,0,0,1
423,423,0,1,1,f,00,fd,0,1,0,1,0,0,1
424,424,0,1,1,f,00,fe,0,1,0,1,0,0,1
425,425,0,1,2,f,00,ff,0,1,0,1,0,0,1
426,426,0,2,2,0,00,00,0,1,0,1,0,0,1
427,427,0,2,2,0,00,01,0,1,0,1,0,0,1
428,428,0,2,2,0,00,02,0,1,0,1,0,0,1
429,429,0,2,2,0,00,03,0,1,0,1,0,0,1
430,430,0,2,2,0,00,04,0,1,0,1,1,0,1
431,431,0,2,2,0,00,05,0,1,0,1,1,0,1
432,432,0,2,2,0,00,06,0,1,0,1,1,0,1
433,433,0,2,2,0,00,07,0,1,0,1,1,0,1
434,434,0,2,2,0,00,08,0,1,0,1,1,0,1
435,435,0,2,2,0,00,09,0,1,0,1,1,0,1
436,436,0,2,2,0,00,0a,0,1,0,1,1,0,1
437,437,0,2,2,0,00,0b,0,1,0,1,1,0,1
438,438,0,2,2,0,00,0c,0,1,0,1,1,0,1
439,439,0,2,2,0,00,0d,0,1,0,1,1,0,1
440,440,0,2,2,0,00,0e,0,1,0,1,1,0,1
441,441,0,2,2,0,00,0f,0,1,0,1,1,0,1
442,442,0,2,2,0,01,00,0,1,0,1,1,0,1
443,443,0,2,2,0,01,01,0,1,0,1,1,0,1
444,444,0,2,2,0,01,02,0,1,0,1,1,0,1
445,445,0,2,2,0,01,03,0,1,0,1,1,0,1
446,446,0,2,2,0,01,04,0,1,0,1,1,0,1
447,447,0,2,2,0,01,05,0,1,0,1,1,0,1
448,448,0,2,2,0,01,06,0,1,0,1,1,0,1
449,449,0,2,2,0,01,07,0,1,0,1,1,0,1
450,450,0,2,2,0,01,08,0,1,0,1,1,0,1
451,451,0,2,2,0,01,09,0,1,0,1,1,0,1
452,452,0,2,2,0,01,0a,0,1,0,1,1,0,1
453,453,0,2,2,0,01,0b,0,1,0,1,1,0,1
454,454,0,2,2,0,01,0c,0,1,0,1,1,0,1
455,455,0,2,2,0,01,0d,0,1,0,1,1,0,1
456,456,0,2,2,0,01,0e,0,1,0,0,1,0,1
457,457,0,2,2,0,01,0f,0,1,0,0,1,0,1
458,458,0,2,2,0,02,00,0,1,0,0,1,0,1
459,459,0,2,2,0,02,01,0,1,0,0,1,0,1
460,460,0,2,2,0,02,02,0,1,0,0,1,0,1
461,461,0,2,2,0,02,03,0,1,0,0,1,0,1
462,462,0,2,2,0,02,04,0,1,0,0,1,0,1
463,463,0,2,2,0,02,05,0,1,0,0,1,0,1
464,464,0,2,2,0,02,06,0,1,0,0,1,0,1
465,465,0,2,2,0,02,07,0,1,0,0,1,0,1
466,466,0,2,2,0,02,08,0,1,0,0,1,0,1
467,467,0,2,2,0,02,09,0,1,0,0,1,0,1
468,468,0,2,2,0,02,0a,0,1,0,0,1,0,1
469,469,0,2,2,0,02,0b,0,1,0,0,1,0,1
470,470,0,2,2,0,02,0c,0,1,0,0,1,0,1
471,471,0,2,2,0,02,0d,0,1,0,0,1,0,1
472,472,0,2,2,0,02,0e,0,1,0,0,1,0,1
473,473,0,2,2,0,02,0f,0,1,0,0,1,0,1
474,474,0,2,2,0,03,00,0,1,0,0,1,0,1
475,475,0,2,2,0,03,01,0,1,0,0,1,0,1
476,476,0,2,2,0,03,02,0,1,0,0,1,0,1
477,477,0,2,2,0,03,03,0,1,0,0,1,0,1
478,478,0,2,2,0,03,04,0,1,0,0,1,0,1
479,479,0,2,2,0,03,05,0,1,0,0,1,0,1
480,480,0,2,2,0,03,06,0,1,0,0,1,0,1
481,481,0,2,2,0,03,07,0,1,0,0,1,0,1
482,482,0,2,2,0,03,08,0,1,0,0,1,0,1
483,483,0,2,2,0,03,09,0,1,0,0,1,0,1
484,484,0,2,2,0,03,0a,0,1,0,0,1,0,1
485,485,0,2,2,0,03,0b,0,1,0,0,1,0,1
486,486,0,2,2,0,03,0c,0,1,0,0,1,0,1
487,487,0,2,2,0,03,0d,0,1,0,0,1,0,1
488,488,0,2,2,0,03,0e,0,1,0,0,1,0,1
489,489,0,2,2,0,03,0f,0,1,0,0,1,0,1
490,490,0,2,2,0,04,00,0,1,0,0,1,0,1
491,491,0,2,2,0,04,01,0,1,0,0,1,0,1
492,492,0,2,2,0,04,02,0,1,0,0,1,0,1
493,493,0,2,2,0,04,03,0,1,0,0,1,0,1
494,494,0,2,2,0,04,04,0,1,0,0,1,0,1
495,495,0,2,2,0,04,05,0,1,0,0,1,0,1
496,496,0,2,2,0,04,06,0,1,0,0,1,0,1
497,497,0,2,2,0,04,07,0,1,0,0,1,0,1
498,498,0,2,2,0,04,08,0,1,0,0,1,0,1
499,499,0,2,2,0,04,09,0,1,0,0,1,0,1
500,500,0,2,2,0,04,0a,0,1,0,0,1,0,1
501,501,0,2,2,0,04,0b,0,1,0,0,1,0,1
502,502,0,2,2,0,04,0c,0,1,0,0,1,0,1
503,503,0,2,2,0,04,0d,0,1,0,0,1,0,1
504,504,0,2,2,0,04,0e,0,1,0,0,1,0,1
505,505,0,2,2,0,04,0f,0,1,0,0,1,0,1
506,506,0,2,2,0,05,00,0,1,0,0,1,0,1
507,507,0,2,2,0,05,01,0,1,0,0,1,0,1
508,508,0,2,2,0,05,02,0,1,0,0,1,0,1
509,509,0,2,2,0,05,03,0,1,0,0,1,0,1
510,510,0,2,2,0,05,04,0,1,0,0,1,0,1
511,511,0,2,2,0,05,05,0,1,0,0,1,0,1
512,512,1,2,2,0,05,06,0,1,0,0,1,1,1
513,513,0,2,2,0,05,07,0,1,0,0,1,1,1
514,514,0,2,2,0,05,08,0,1,0,0,1,1,1
515,515,0,2,2,0,05,09,0,1,0,0,1,1,1
516,516,0,2,2,0,05,0a,0,1,0,0,1,1,1
517,517,0,2,2,0,05,0b,0,1,0,0,1,1,1
518,518,0,2,2,0,05,0c,0,1,0,0,1,1,1
519,519,0,2,2,0,05,0d,0,1,0,0,1,1,1
520,520,0,2,2,0,05,0e,0,1,0,0,1,1,1
521,521,0,2,2,0,05,0f,0,1,0,0,1,1,1
522,522,0,2,2,0,06,00,0,1,0,0,1,1,1
523,523,0,2,2,0,06,01,0,1,0,0,1,1,1
524,524,0,2,2,0,06,02,0,1,0,0,1,1,1
525,525,0,2,2,0,06,03,0,1,0,0,1,1,1
526,526,0,2,2,0,06,04,0,1,0,0,1,1,1
527,527,0,2,2,0,06,05,0,1,0,0,1,1,1
528,528,0,2,2,0,06,06,0,1,0,0,1,1,1
529,529,0,2,2,0,06,07,0,1,0,0,1,1,1
530,530,0,2,2,0,06,08,0,1,0,0,1,1,1
531,531,0,2,2,0,06,09,0,1,0,0,1,1,1
532,532,0,2,2,0,06,0a,0,1,0,0,1,1,1
533,533,0,2,2,0,06,0b,0,1,0,0,1,1,1
534,534,0,2,2,0,06,0c,0,1,0,0,1,1,1
535,535,0,2,2,0,06,0d,0,1,0,0,1,1,1
536,536,0,2,2,0,06,0e,0,1,0,0,1,1,1
537,537,0,2,2,0,06,0f,0,1,0,0,1,1,1
538,538,0,2,2,0,07,00,0,1,0,0,1,1,1
539,539,0,2,2,0,07,01,0,1,0,0,1,1,1
540,540,0,2,2,0,07,02,0,1,0,0,1,1,1
541,541,0,2,2,0,07,03,0,1,0,0,1,1,1
542,542,0,2,2,0,07,04,0,1,0,0,1,1,1
543,543,0,2,2,0,07,05,0,1,0,0,1,1,1
544,544,0,2,2,0,07,06,0,1,0,0,1,1,1
545,545,0,2,2,0,07,07,0,1,0,0,1,1,1
546,546,0,2,2,0,07,08,0,1,0,0,1,1,1
547,547,0,2,2,0,07,09,0,1,0,0,1,1,1
548,548,0,2,2,0,07,0a,0,1,0,0,1,1,1
549,549,0,2,2,0,07,0b,0,1,0,0,1,1,1
550,550,0,2,2,0,07,0c,0,1,0,0,1,1,1
