Sample in Buffer,Sample in Window,TRIGGER,top_i/system_ila_0/inst/net_slot_0_axis_tdata[31:0],top_i/system_ila_0/inst/net_slot_0_axis_tvalid,top_i/system_ila_0/inst/net_slot_0_axis_tready,top_i/system_ila_0/inst/net_slot_0_axis_tlast,top_i/system_ila_0/inst/net_slot_1_axis_tdata[31:0],top_i/system_ila_0/inst/net_slot_1_axis_tvalid,top_i/system_ila_0/inst/net_slot_1_axis_tready,top_i/system_ila_0/inst/net_slot_1_axis_tlast,top_i/system_ila_0/inst/net_slot_2_axis_tdata[31:0],top_i/system_ila_0/inst/net_slot_2_axis_tkeep[3:0],top_i/system_ila_0/inst/net_slot_2_axis_tvalid,top_i/system_ila_0/inst/net_slot_2_axis_tready,top_i/system_ila_0/inst/net_slot_2_axis_tlast,top_i/system_ila_0/inst/net_slot_3_axis_tdata[31:0],top_i/system_ila_0/inst/net_slot_3_axis_tkeep[3:0],top_i/system_ila_0/inst/net_slot_3_axis_tvalid,top_i/system_ila_0/inst/net_slot_3_axis_tready,top_i/system_ila_0/inst/net_slot_3_axis_tlast,Interface_(i1:s0)_(axis_data_fifo_1_M_AXIS)[2:0],Interface_(i1:s1)_(axis_data_fifo_0_M_AXIS)[2:0],Interface_(i1:s2)_(S_AXIS_0_1)[2:0],Interface_(i1:s3)_(axi_dma_0_M_AXIS_MM2S)[2:0],T_Channel_(i1:s0)_(axis_data_fifo_1_M_AXIS)[2:0],T_Channel_(i1:s1)_(axis_data_fifo_0_M_AXIS)[2:0],T_Channel_(i1:s2)_(S_AXIS_0_1)[2:0],T_Channel_(i1:s3)_(axi_dma_0_M_AXIS_MM2S)[2:0]
0,0,1,00000000,0,1,0,fde4fe30,0,0,1,197a44a0,f,1,1,0,00000000,0,0,1,0,"_","Inactive","_","Inactive","_","No Streams","_","No Streams"
1,1,0,00000000,0,1,0,fde4fe30,0,0,1,00000000,f,0,1,0,00000000,0,0,1,0,"_","Inactive","_","Inactive","_","No Streams","_","No Streams"
2,2,0,00000000,0,1,0,fde4fe30,0,0,1,00000000,f,0,1,0,00000000,0,0,1,0,"_","Inactive","_","Inactive","_","No Streams","_","No Streams"
3,3,0,197a44a0,1,1,0,fde4fe30,0,0,1,00000000,f,0,1,0,00000000,0,0,1,0,"Active","Inactive","_","Inactive","Stream Beat","No Streams","_","No Streams"
4,4,0,197a44a0,0,1,0,fde4fe30,0,0,1,fd58fe25,f,1,1,0,00000000,0,0,1,0,"_","Inactive","Active","Inactive","_","No Streams","Stream Beat","No Streams"
5,5,0,197a44a0,0,1,0,fde4fe30,0,0,1,fca6febd,f,1,1,0,00000000,0,0,1,0,"_","Inactive","Active","Inactive","_","No Streams","Stream Beat","No Streams"
6,6,0,197a44a0,0,1,0,fde4fe30,0,0,1,00000000,f,0,1,0,00000000,0,0,1,0,"_","Inactive","_","Inactive","_","No Streams","_","No Streams"
7,7,0,fd58fe25,1,1,0,fde4fe30,0,0,1,00000000,f,0,1,0,00000000,0,0,1,0,"Active","Inactive","_","Inactive","Stream Beat","No Streams","_","No Streams"
8,8,0,fca6febd,1,1,0,fde4fe30,0,0,1,00000000,f,0,1,0,00000000,0,0,1,0,"Active","Inactive","_","Inactive","Stream Beat","No Streams","_","No Streams"
9,9,0,fca6febd,0,1,0,fde4fe30,0,0,1,fd20ff7a,f,1,1,0,00000000,0,0,1,0,"_","Inactive","Active","Inactive","_","No Streams","Stream Beat","No Streams"
10,10,0,fca6febd,0,1,0,fde4fe30,0,0,1,fd1ffd6d,f,1,1,0,00000000,0,0,1,0,"_","Inactive","Active","Inactive","_","No Streams","Stream Beat","No Streams"
11,11,0,fca6febd,0,1,0,fde4fe30,0,0,1,00000000,f,0,1,0,00000000,0,0,1,0,"_","Inactive","_","Inactive","_","No Streams","_","No Streams"
12,12,0,fd20ff7a,1,1,0,fde4fe30,0,0,1,00000000,f,0,1,0,00000000,0,0,1,0,"Active","Inactive","_","Inactive","Stream Beat","No Streams","_","No Streams"
13,13,0,fd1ffd6d,1,1,0,fde4fe30,0,0,1,00000000,f,0,1,0,00000000,0,0,1,0,"Active","Inactive","_","Inactive","Stream Beat","No Streams","_","No Streams"
14,14,0,fd1ffd6d,0,1,0,fde4fe30,0,0,1,009f0004,f,1,1,0,00000000,0,0,1,0,"_","Inactive","Active","Inactive","_","No Streams","Stream Beat","No Streams"
15,15,0,fd1ffd6d,0,1,0,fde4fe30,0,0,1,ff38fff3,f,1,1,0,00000000,0,0,1,0,"_","Inactive","Active","Inactive","_","No Streams","Stream Beat","No Streams"
16,16,0,fd1ffd6d,0,1,0,fde4fe30,0,0,1,0110ff22,f,1,1,0,00000000,0,0,1,0,"_","Inactive","Active","Inactive","_","No Streams","Stream Beat","No Streams"
17,17,0,009f0004,1,1,0,fde4fe30,0,0,1,00000000,f,1,1,0,00000000,0,0,1,0,"Active","Inactive","Active","Inactive","Stream Beat","No Streams","Stream Beat","No Streams"
18,18,0,ff38fff3,1,1,0,fde4fe30,0,0,1,005eff79,f,1,1,0,00000000,0,0,1,0,"Active","Inactive","Active","Inactive","Stream Beat","No Streams","Stream Beat","No Streams"
19,19,0,0110ff22,1,1,0,fde4fe30,0,0,1,0086fe9d,f,1,1,0,00000000,0,0,1,0,"Active","Inactive","Active","Inactive","Stream Beat","No Streams","Stream Beat","No Streams"
20,20,0,00000000,1,1,0,fde4fe30,0,0,1,005afe14,f,1,1,0,00000000,0,0,1,0,"Active","Inactive","Active","Inactive","Stream Beat","No Streams","Stream Beat","No Streams"
21,21,0,005eff79,1,1,0,fde4fe30,0,0,1,00000000,f,0,1,0,00000000,0,0,1,0,"Active","Inactive","_","Inactive","Stream Beat","No Streams","_","No Streams"
22,22,0,0086fe9d,1,1,0,fde4fe30,0,0,1,00000000,f,0,1,0,00000000,0,0,1,0,"Active","Inactive","_","Inactive","Stream Beat","No Streams","_","No Streams"
23,23,0,005afe14,1,1,0,fde4fe30,0,0,1,00000000,f,0,1,0,00000000,0,0,1,0,"Active","Inactive","_","Inactive","Stream Beat","No Streams","_","No Streams"
24,24,0,005afe14,0,1,0,fde4fe30,0,0,1,0293fd1f,f,1,1,0,00000000,0,0,1,0,"_","Inactive","Active","Inactive","_","No Streams","Stream Beat","No Streams"
25,25,0,005afe14,0,1,0,fde4fe30,0,0,1,fffb00ee,f,1,1,0,00000000,0,0,1,0,"_","Inactive","Active","Inactive","_","No Streams","Stream Beat","No Streams"
26,26,0,005afe14,0,1,0,fde4fe30,0,0,1,00000000,f,0,1,0,00000000,0,0,1,0,"_","Inactive","_","Inactive","_","No Streams","_","No Streams"
27,27,0,0293fd1f,1,1,0,fde4fe30,0,0,1,00000000,f,0,1,0,00000000,0,0,1,0,"Active","Inactive","_","Inactive","Stream Beat","No Streams","_","No Streams"
28,28,0,fffb00ee,1,1,0,fde4fe30,0,0,1,00000000,f,0,1,0,00000000,0,0,1,0,"Active","Inactive","_","Inactive","Stream Beat","No Streams","_","No Streams"
29,29,0,fffb00ee,0,1,0,fde4fe30,0,0,1,0020fe1f,f,1,1,0,00000000,0,0,1,0,"_","Inactive","Active","Inactive","_","No Streams","Stream Beat","No Streams"
30,30,0,fffb00ee,0,1,0,fde4fe30,0,0,1,04560558,f,1,1,0,00000000,0,0,1,0,"_","Inactive","Active","Inactive","_","No Streams","Stream Beat","No Streams"
31,31,0,fffb00ee,0,1,0,fde4fe30,0,0,1,197a44a0,f,0,1,0,00000000,0,0,1,0,"_","Inactive","_","Inactive","_","No Streams","_","No Streams"
32,32,0,0020fe1f,1,1,0,fde4fe30,0,0,1,197a44a0,f,0,1,0,00000000,0,0,1,0,"Active","Inactive","_","Inactive","Stream Beat","No Streams","_","No Streams"
33,33,0,04560558,1,1,0,fde4fe30,0,0,1,197a44a0,f,0,1,0,00000000,0,0,1,0,"Active","Inactive","_","Inactive","Stream Beat","No Streams","_","No Streams"
34,34,0,04560558,0,1,0,fde4fe30,0,0,1,197a44a0,f,0,1,0,00000000,0,0,1,0,"_","Inactive","_","Inactive","_","No Streams","_","No Streams"
35,35,0,04560558,0,1,0,fde4fe30,0,0,1,197a44a0,f,0,1,0,00000000,0,0,1,0,"_","Inactive","_","Inactive","_","No Streams","_","No Streams"
36,36,0,04560558,0,1,0,fde4fe30,0,0,1,197a44a0,f,0,1,0,00000000,0,0,1,0,"_","Inactive","_","Inactive","_","No Streams","_","No Streams"
37,37,0,04560558,0,1,0,fde4fe30,0,0,1,197a44a0,f,0,1,0,00000000,0,0,1,0,"_","Inactive","_","Inactive","_","No Streams","_","No Streams"
38,38,0,04560558,0,1,0,fde4fe30,0,0,1,197a44a0,f,0,1,0,00000000,0,0,1,0,"_","Inactive","_","Inactive","_","No Streams","_","No Streams"
39,39,0,04560558,0,1,0,fde4fe30,0,0,1,197a44a0,f,0,1,0,00000000,0,0,1,0,"_","Inactive","_","Inactive","_","No Streams","_","No Streams"
40,40,0,04560558,0,1,0,fde4fe30,0,0,1,49c4a668,f,1,1,0,00000000,0,0,1,0,"_","Inactive","Active","Inactive","_","No Streams","Stream Beat","No Streams"
41,41,0,04560558,0,1,0,fde4fe30,0,0,1,fd58fe25,f,0,1,0,00000000,0,0,1,0,"_","Inactive","_","Inactive","_","No Streams","_","No Streams"
42,42,0,04560558,0,1,0,fde4fe30,0,0,1,fd58fe25,f,0,1,0,00000000,0,0,1,0,"_","Inactive","_","Inactive","_","No Streams","_","No Streams"
43,43,0,49c4a668,1,1,0,fde4fe30,0,0,1,fd58fe25,f,0,1,0,00000000,0,0,1,0,"Active","Inactive","_","Inactive","Stream Beat","No Streams","_","No Streams"
44,44,0,49c4a668,0,1,0,fde4fe30,0,0,1,007b01b1,f,1,1,0,00000000,0,0,1,0,"_","Inactive","Active","Inactive","_","No Streams","Stream Beat","No Streams"
45,45,0,49c4a668,0,1,0,fde4fe30,0,0,1,ffe0f979,f,1,1,0,00000000,0,0,1,0,"_","Inactive","Active","Inactive","_","No Streams","Stream Beat","No Streams"
46,46,0,49c4a668,0,1,0,fde4fe30,0,0,1,fd20ff7a,f,0,1,0,00000000,0,0,1,0,"_","Inactive","_","Inactive","_","No Streams","_","No Streams"
47,47,0,007b01b1,1,1,0,fde4fe30,0,0,1,fd20ff7a,f,0,1,0,00000000,0,0,1,0,"Active","Inactive","_","Inactive","Stream Beat","No Streams","_","No Streams"
48,48,0,ffe0f979,1,1,0,fde4fe30,0,0,1,fd20ff7a,f,0,1,0,00000000,0,0,1,0,"Active","Inactive","_","Inactive","Stream Beat","No Streams","_","No Streams"
49,49,0,ffe0f979,0,1,0,fde4fe30,0,0,1,0052fe63,f,1,1,0,00000000,0,0,1,0,"_","Inactive","Active","Inactive","_","No Streams","Stream Beat","No Streams"
50,50,0,ffe0f979,0,1,0,fde4fe30,0,0,1,0102ffda,f,1,1,0,00000000,0,0,1,0,"_","Inactive","Active","Inactive","_","No Streams","Stream Beat","No Streams"
51,51,0,ffe0f979,0,1,0,fde4fe30,0,0,1,009f0004,f,0,1,0,00000000,0,0,1,0,"_","Inactive","_","Inactive","_","No Streams","_","No Streams"
52,52,0,0052fe63,1,1,0,fde4fe30,0,0,1,009f0004,f,0,1,0,00000000,0,0,1,0,"Active","Inactive","_","Inactive","Stream Beat","No Streams","_","No Streams"
53,53,0,0102ffda,1,1,0,fde4fe30,0,0,1,009f0004,f,0,1,0,00000000,0,0,1,0,"Active","Inactive","_","Inactive","Stream Beat","No Streams","_","No Streams"
54,54,0,0102ffda,0,1,0,fde4fe30,0,0,1,fec4fe7c,f,1,1,0,00000000,0,0,1,0,"_","Inactive","Active","Inactive","_","No Streams","Stream Beat","No Streams"
55,55,0,0102ffda,0,1,0,fde4fe30,0,0,1,feeb00d6,f,1,1,0,00000000,0,0,1,0,"_","Inactive","Active","Inactive","_","No Streams","Stream Beat","No Streams"
56,56,0,0102ffda,0,1,0,fde4fe30,0,0,1,0119003a,f,1,1,0,00000000,0,0,1,0,"_","Inactive","Active","Inactive","_","No Streams","Stream Beat","No Streams"
57,57,0,fec4fe7c,1,1,0,fde4fe30,0,0,1,00000000,f,1,1,0,00000000,0,0,1,0,"Active","Inactive","Active","Inactive","Stream Beat","No Streams","Stream Beat","No Streams"
58,58,0,feeb00d6,1,1,0,fde4fe30,0,0,1,ffa90019,f,1,1,0,00000000,0,0,1,0,"Active","Inactive","Active","Inactive","Stream Beat","No Streams","Stream Beat","No Streams"
59,59,0,0119003a,1,1,0,fde4fe30,0,0,1,02b4fff3,f,1,1,0,00000000,0,0,1,0,"Active","Inactive","Active","Inactive","Stream Beat","No Streams","Stream Beat","No Streams"
60,60,0,00000000,1,1,0,fde4fe30,0,0,1,01140037,f,1,1,0,00000000,0,0,1,0,"Active","Inactive","Active","Inactive","Stream Beat","No Streams","Stream Beat","No Streams"
61,61,0,ffa90019,1,1,0,fde4fe30,0,0,1,0293fd1f,f,0,1,0,00000000,0,0,1,0,"Active","Inactive","_","Inactive","Stream Beat","No Streams","_","No Streams"
62,62,0,02b4fff3,1,1,0,fde4fe30,0,0,1,0293fd1f,f,0,1,0,00000000,0,0,1,0,"Active","Inactive","_","Inactive","Stream Beat","No Streams","_","No Streams"
63,63,0,01140037,1,1,0,fde4fe30,0,0,1,0293fd1f,f,0,1,0,00000000,0,0,1,0,"Active","Inactive","_","Inactive","Stream Beat","No Streams","_","No Streams"
64,64,0,01140037,0,1,0,fde4fe30,0,0,1,00260102,f,1,1,0,00000000,0,0,1,0,"_","Inactive","Active","Inactive","_","No Streams","Stream Beat","No Streams"
65,65,0,01140037,0,1,0,fde4fe30,0,0,1,0244fe26,f,1,1,0,00000000,0,0,1,0,"_","Inactive","Active","Inactive","_","No Streams","Stream Beat","No Streams"
66,66,0,01140037,0,1,0,fde4fe30,0,0,1,0020fe1f,f,0,1,0,00000000,0,0,1,0,"_","Inactive","_","Inactive","_","No Streams","_","No Streams"
67,67,0,00260102,1,1,0,fde4fe30,0,0,1,0020fe1f,f,0,1,0,00000000,0,0,1,0,"Active","Inactive","_","Inactive","Stream Beat","No Streams","_","No Streams"
68,68,0,0244fe26,1,1,0,fde4fe30,0,0,1,0020fe1f,f,0,1,0,00000000,0,0,1,0,"Active","Inactive","_","Inactive","Stream Beat","No Streams","_","No Streams"
69,69,0,0244fe26,0,1,0,fde4fe30,0,0,1,fdfdfd62,f,1,1,0,00000000,0,0,1,0,"_","Inactive","Active","Inactive","_","No Streams","Stream Beat","No Streams"
70,70,0,0244fe26,0,1,0,fde4fe30,0,0,1,fedd0588,f,1,1,0,00000000,0,0,1,0,"_","Inactive","Active","Inactive","_","No Streams","Stream Beat","No Streams"
71,71,0,0244fe26,0,1,0,fde4fe30,0,0,1,49c4a668,f,0,1,0,00000000,0,0,1,0,"_","Inactive","_","Inactive","_","No Streams","_","No Streams"
72,72,0,fdfdfd62,1,1,0,fde4fe30,0,0,1,49c4a668,f,0,1,0,00000000,0,0,1,0,"Active","Inactive","_","Inactive","Stream Beat","No Streams","_","No Streams"
73,73,0,fedd0588,1,1,0,fde4fe30,0,0,1,49c4a668,f,0,1,0,00000000,0,0,1,0,"Active","Inactive","_","Inactive","Stream Beat","No Streams","_","No Streams"
74,74,0,fedd0588,0,1,0,fde4fe30,0,0,1,49c4a668,f,0,1,0,00000000,0,0,1,0,"_","Inactive","_","Inactive","_","No Streams","_","No Streams"
75,75,0,fedd0588,0,1,0,fde4fe30,0,0,1,49c4a668,f,0,1,0,00000000,0,0,1,0,"_","Inactive","_","Inactive","_","No Streams","_","No Streams"
76,76,0,fedd0588,0,1,0,fde4fe30,0,0,1,49c4a668,f,0,1,0,00000000,0,0,1,0,"_","Inactive","_","Inactive","_","No Streams","_","No Streams"
77,77,0,fedd0588,0,1,0,fde4fe30,0,0,1,49c4a668,f,0,1,0,00000000,0,0,1,0,"_","Inactive","_","Inactive","_","No Streams","_","No Streams"
78,78,0,fedd0588,0,1,0,fde4fe30,0,0,1,49c4a668,f,0,1,0,00000000,0,0,1,0,"_","Inactive","_","Inactive","_","No Streams","_","No Streams"
79,79,0,fedd0588,0,1,0,fde4fe30,0,0,1,49c4a668,f,0,1,0,00000000,0,0,1,0,"_","Inactive","_","Inactive","_","No Streams","_","No Streams"
80,80,0,fedd0588,0,1,0,fde4fe30,0,0,1,5cf27052,f,1,1,0,00000000,0,0,1,0,"_","Inactive","Active","Inactive","_","No Streams","Stream Beat","No Streams"
81,81,0,fedd0588,0,1,0,fde4fe30,0,0,1,007b01b1,f,0,1,0,00000000,0,0,1,0,"_","Inactive","_","Inactive","_","No Streams","_","No Streams"
82,82,0,fedd0588,0,1,0,fde4fe30,0,0,1,007b01b1,f,0,1,0,00000000,0,0,1,0,"_","Inactive","_","Inactive","_","No Streams","_","No Streams"
83,83,0,5cf27052,1,1,0,fde4fe30,0,0,1,007b01b1,f,0,1,0,00000000,0,0,1,0,"Active","Inactive","_","Inactive","Stream Beat","No Streams","_","No Streams"
84,84,0,5cf27052,0,1,0,fde4fe30,0,0,1,03a3fffd,f,1,1,0,00000000,0,0,1,0,"_","Inactive","Active","Inactive","_","No Streams","Stream Beat","No Streams"
85,85,0,5cf27052,0,1,0,fde4fe30,0,0,1,ff1dfdd7,f,1,1,0,00000000,0,0,1,0,"_","Inactive","Active","Inactive","_","No Streams","Stream Beat","No Streams"
86,86,0,5cf27052,0,1,0,fde4fe30,0,0,1,0052fe63,f,0,1,0,00000000,0,0,1,0,"_","Inactive","_","Inactive","_","No Streams","_","No Streams"
87,87,0,03a3fffd,1,1,0,fde4fe30,0,0,1,0052fe63,f,0,1,0,00000000,0,0,1,0,"Active","Inactive","_","Inactive","Stream Beat","No Streams","_","No Streams"
88,88,0,ff1dfdd7,1,1,0,fde4fe30,0,0,1,0052fe63,f,0,1,0,00000000,0,0,1,0,"Active","Inactive","_","Inactive","Stream Beat","No Streams","_","No Streams"
89,89,0,ff1dfdd7,0,1,0,fde4fe30,0,0,1,fbfdfdbd,f,1,1,0,00000000,0,0,1,0,"_","Inactive","Active","Inactive","_","No Streams","Stream Beat","No Streams"
90,90,0,ff1dfdd7,0,1,0,fde4fe30,0,0,1,fb06fea0,f,1,1,0,00000000,0,0,1,0,"_","Inactive","Active","Inactive","_","No Streams","Stream Beat","No Streams"
91,91,0,ff1dfdd7,0,1,0,fde4fe30,0,0,1,fec4fe7c,f,0,1,0,00000000,0,0,1,0,"_","Inactive","_","Inactive","_","No Streams","_","No Streams"
92,92,0,fbfdfdbd,1,1,0,fde4fe30,0,0,1,fec4fe7c,f,0,1,0,00000000,0,0,1,0,"Active","Inactive","_","Inactive","Stream Beat","No Streams","_","No Streams"
93,93,0,fb06fea0,1,1,0,fde4fe30,0,0,1,fec4fe7c,f,0,1,0,00000000,0,0,1,0,"Active","Inactive","_","Inactive","Stream Beat","No Streams","_","No Streams"
94,94,0,fb06fea0,0,1,0,fde4fe30,0,0,1,ff9c0096,f,1,1,0,00000000,0,0,1,0,"_","Inactive","Active","Inactive","_","No Streams","Stream Beat","No Streams"
95,95,0,fb06fea0,0,1,0,fde4fe30,0,0,1,fe4fff43,f,1,1,0,00000000,0,0,1,0,"_","Inactive","Active","Inactive","_","No Streams","Stream Beat","No Streams"
96,96,0,fb06fea0,0,1,0,fde4fe30,0,0,1,01350027,f,1,1,0,00000000,0,0,1,0,"_","Inactive","Active","Inactive","_","No Streams","Stream Beat","No Streams"
97,97,0,ff9c0096,1,1,0,fde4fe30,0,0,1,00000000,f,1,1,0,00000000,0,0,1,0,"Active","Inactive","Active","Inactive","Stream Beat","No Streams","Stream Beat","No Streams"
98,98,0,fe4fff43,1,1,0,fde4fe30,0,0,1,000100b9,f,1,1,0,00000000,0,0,1,0,"Active","Inactive","Active","Inactive","Stream Beat","No Streams","Stream Beat","No Streams"
99,99,0,01350027,1,1,0,fde4fe30,0,0,1,00e5ffa3,f,1,1,0,00000000,0,0,1,0,"Active","Inactive","Active","Inactive","Stream Beat","No Streams","Stream Beat","No Streams"
100,100,0,00000000,1,1,0,fde4fe30,0,0,1,0183fd53,f,1,1,0,00000000,0,0,1,0,"Active","Inactive","Active","Inactive","Stream Beat","No Streams","Stream Beat","No Streams"
101,101,0,000100b9,1,1,0,fde4fe30,0,0,1,00260102,f,0,1,0,00000000,0,0,1,0,"Active","Inactive","_","Inactive","Stream Beat","No Streams","_","No Streams"
102,102,0,00e5ffa3,1,1,0,fde4fe30,0,0,1,00260102,f,0,1,0,00000000,0,0,1,0,"Active","Inactive","_","Inactive","Stream Beat","No Streams","_","No Streams"
103,103,0,0183fd53,1,1,0,fde4fe30,0,0,1,00260102,f,0,1,0,00000000,0,0,1,0,"Active","Inactive","_","Inactive","Stream Beat","No Streams","_","No Streams"
104,104,0,0183fd53,0,1,0,fde4fe30,0,0,1,0160fb06,f,1,1,0,00000000,0,0,1,0,"_","Inactive","Active","Inactive","_","No Streams","Stream Beat","No Streams"
105,105,0,0183fd53,0,1,0,fde4fe30,0,0,1,ff20ff6c,f,1,1,0,00000000,0,0,1,0,"_","Inactive","Active","Inactive","_","No Streams","Stream Beat","No Streams"
106,106,0,0183fd53,0,1,0,fde4fe30,0,0,1,fdfdfd62,f,0,1,0,00000000,0,0,1,0,"_","Inactive","_","Inactive","_","No Streams","_","No Streams"
107,107,0,0160fb06,1,1,0,fde4fe30,0,0,1,fdfdfd62,f,0,1,0,00000000,0,0,1,0,"Active","Inactive","_","Inactive","Stream Beat","No Streams","_","No Streams"
108,108,0,ff20ff6c,1,1,0,fde4fe30,0,0,1,fdfdfd62,f,0,1,0,00000000,0,0,1,0,"Active","Inactive","_","Inactive","Stream Beat","No Streams","_","No Streams"
109,109,0,ff20ff6c,0,1,0,fde4fe30,0,0,1,01c7fbeb,f,1,1,0,00000000,0,0,1,0,"_","Inactive","Active","Inactive","_","No Streams","Stream Beat","No Streams"
110,110,0,ff20ff6c,0,1,0,fde4fe30,0,0,1,ff3b0611,f,1,1,0,00000000,0,0,1,0,"_","Inactive","Active","Inactive","_","No Streams","Stream Beat","No Streams"
111,111,0,ff20ff6c,0,1,0,fde4fe30,0,0,1,5cf27052,f,0,1,0,00000000,0,0,1,0,"_","Inactive","_","Inactive","_","No Streams","_","No Streams"
112,112,0,01c7fbeb,1,1,0,fde4fe30,0,0,1,5cf27052,f,0,1,0,00000000,0,0,1,0,"Active","Inactive","_","Inactive","Stream Beat","No Streams","_","No Streams"
113,113,0,ff3b0611,1,1,0,fde4fe30,0,0,1,5cf27052,f,0,1,0,00000000,0,0,1,0,"Active","Inactive","_","Inactive","Stream Beat","No Streams","_","No Streams"
114,114,0,ff3b0611,0,1,0,fde4fe30,0,0,1,5cf27052,f,0,1,0,00000000,0,0,1,0,"_","Inactive","_","Inactive","_","No Streams","_","No Streams"
115,115,0,ff3b0611,0,1,0,fde4fe30,0,0,1,5cf27052,f,0,1,0,00000000,0,0,1,0,"_","Inactive","_","Inactive","_","No Streams","_","No Streams"
116,116,0,ff3b0611,0,1,0,fde4fe30,0,0,1,5cf27052,f,0,1,0,00000000,0,0,1,0,"_","Inactive","_","Inactive","_","No Streams","_","No Streams"
117,117,0,ff3b0611,0,1,0,fde4fe30,0,0,1,5cf27052,f,0,1,0,00000000,0,0,1,0,"_","Inactive","_","Inactive","_","No Streams","_","No Streams"
118,118,0,ff3b0611,0,1,0,fde4fe30,0,0,1,5cf27052,f,0,1,0,00000000,0,0,1,0,"_","Inactive","_","Inactive","_","No Streams","_","No Streams"
119,119,0,ff3b0611,0,1,0,fde4fe30,0,0,1,5cf27052,f,0,1,0,00000000,0,0,1,0,"_","Inactive","_","Inactive","_","No Streams","_","No Streams"
120,120,0,ff3b0611,0,1,0,fde4fe30,0,0,1,adce32f0,f,1,1,0,00000000,0,0,1,0,"_","Inactive","Active","Inactive","_","No Streams","Stream Beat","No Streams"
121,121,0,ff3b0611,0,1,0,fde4fe30,0,0,1,03a3fffd,f,0,1,0,00000000,0,0,1,0,"_","Inactive","_","Inactive","_","No Streams","_","No Streams"
122,122,0,ff3b0611,0,1,0,fde4fe30,0,0,1,03a3fffd,f,0,1,0,00000000,0,0,1,0,"_","Inactive","_","Inactive","_","No Streams","_","No Streams"
123,123,0,adce32f0,1,1,0,fde4fe30,0,0,1,03a3fffd,f,0,1,0,00000000,0,0,1,0,"Active","Inactive","_","Inactive","Stream Beat","No Streams","_","No Streams"
124,124,0,adce32f0,0,1,0,fde4fe30,0,0,1,feb6fdb6,f,1,1,0,00000000,0,0,1,0,"_","Inactive","Active","Inactive","_","No Streams","Stream Beat","No Streams"
125,125,0,adce32f0,0,1,0,fde4fe30,0,0,1,fd4cfc3c,f,1,1,0,00000000,0,0,1,0,"_","Inactive","Active","Inactive","_","No Streams","Stream Beat","No Streams"
